Command: /home/xz974/UVM_Learning/UVM_Learning/AXI_LITE/sim/./simv +UVM_TESTNAME=axi_lite_prot_test -l run.log
Chronologic VCS simulator copyright 1991-2023
Contains Synopsys proprietary information.
Compiler version V-2023.12-SP2-1_Full64; Runtime version V-2023.12-SP2-1_Full64;  Jun 22 01:44 2026
----------------------------------------------------------------
UVM-1.1d.Synopsys
(C) 2007-2013 Mentor Graphics Corporation
(C) 2007-2013 Cadence Design Systems, Inc.
(C) 2006-2013 Synopsys, Inc.
(C) 2011-2013 Cypress Semiconductor Corp.
----------------------------------------------------------------

  ***********       IMPORTANT RELEASE NOTES         ************

  You are using a version of the UVM library that has been compiled
  with `UVM_NO_DEPRECATED undefined.
  See http://www.eda.org/svdb/view.php?id=3313 for more details.

  You are using a version of the UVM library that has been compiled
  with `UVM_OBJECT_MUST_HAVE_CONSTRUCTOR undefined.
  See http://www.eda.org/svdb/view.php?id=3770 for more details.

      (Specify +UVM_NO_RELNOTES to turn off this notice)

UVM_INFO @ 0: reporter [RNTST] Running test axi_lite_prot_test...
UVM_INFO ../tb/agent/axi_lite_monitor.sv(123) @ 95000: uvm_test_top.env.agt.monitor [AXI_LITE_MON] WRITE addr=0x00000014 data=0xdeadbeef strb=0xf resp=0x2 order=AXI_LITE_AW_W_SAME b_wait=0
UVM_INFO ../tb/env/axi_lite_scoreboard.sv(135) @ 95000: uvm_test_top.env.scb [AXI_LITE_SCB] Protection write returned SLVERR as expected: addr=0x00000014 prot=0x0
UVM_INFO ../tb/agent/axi_lite_driver.sv(119) @ 105000: uvm_test_top.env.agt.driver [AXI_LITE_DRV] WRITE addr=0x00000014 data=0xdeadbeef strb=0xf resp=0x2 aw_delay=0 w_delay=0 b_ready_delay=0
UVM_INFO ../tb/agent/axi_lite_monitor.sv(175) @ 135000: uvm_test_top.env.agt.monitor [AXI_LITE_MON] READ addr=0x00000014 rdata=0xba5e1e55 resp=0x2 r_wait=0
UVM_INFO ../tb/env/axi_lite_scoreboard.sv(242) @ 135000: uvm_test_top.env.scb [AXI_LITE_SCB] Protection read returned SLVERR/data as expected: addr=0x00000014 prot=0x0
UVM_INFO ../tb/agent/axi_lite_driver.sv(192) @ 145000: uvm_test_top.env.agt.driver [AXI_LITE_DRV] READ addr=0x00000014 rdata=0xba5e1e55 resp=0x2 ar_delay=0 r_ready_delay=0
UVM_INFO ../tb/agent/axi_lite_monitor.sv(175) @ 175000: uvm_test_top.env.agt.monitor [AXI_LITE_MON] READ addr=0x00000014 rdata=0x00000000 resp=0x0 r_wait=0
UVM_INFO ../tb/env/axi_lite_scoreboard.sv(267) @ 175000: uvm_test_top.env.scb [AXI_LITE_SCB] Read match: addr=0x00000014 data=0x00000000
UVM_INFO ../tb/agent/axi_lite_driver.sv(192) @ 185000: uvm_test_top.env.agt.driver [AXI_LITE_DRV] READ addr=0x00000014 rdata=0x00000000 resp=0x0 ar_delay=0 r_ready_delay=0
UVM_INFO ../tb/agent/axi_lite_monitor.sv(123) @ 225000: uvm_test_top.env.agt.monitor [AXI_LITE_MON] WRITE addr=0x00000014 data=0x11112222 strb=0xf resp=0x2 order=AXI_LITE_AW_BEFORE_W b_wait=0
UVM_INFO ../tb/env/axi_lite_scoreboard.sv(135) @ 225000: uvm_test_top.env.scb [AXI_LITE_SCB] Protection write returned SLVERR as expected: addr=0x00000014 prot=0x1
UVM_INFO ../tb/agent/axi_lite_driver.sv(119) @ 235000: uvm_test_top.env.agt.driver [AXI_LITE_DRV] WRITE addr=0x00000014 data=0x11112222 strb=0xf resp=0x2 aw_delay=0 w_delay=1 b_ready_delay=0
UVM_INFO ../tb/agent/axi_lite_monitor.sv(123) @ 285000: uvm_test_top.env.agt.monitor [AXI_LITE_MON] WRITE addr=0x00000014 data=0x33334444 strb=0xf resp=0x2 order=AXI_LITE_W_BEFORE_AW b_wait=1
UVM_INFO ../tb/env/axi_lite_scoreboard.sv(135) @ 285000: uvm_test_top.env.scb [AXI_LITE_SCB] Protection write returned SLVERR as expected: addr=0x00000014 prot=0x2
UVM_INFO ../tb/agent/axi_lite_driver.sv(119) @ 295000: uvm_test_top.env.agt.driver [AXI_LITE_DRV] WRITE addr=0x00000014 data=0x33334444 strb=0xf resp=0x2 aw_delay=1 w_delay=0 b_ready_delay=1
UVM_INFO ../tb/agent/axi_lite_monitor.sv(175) @ 355000: uvm_test_top.env.agt.monitor [AXI_LITE_MON] READ addr=0x00000014 rdata=0x00000000 resp=0x0 r_wait=2
UVM_INFO ../tb/env/axi_lite_scoreboard.sv(267) @ 355000: uvm_test_top.env.scb [AXI_LITE_SCB] Read match: addr=0x00000014 data=0x00000000
UVM_INFO ../tb/agent/axi_lite_driver.sv(192) @ 365000: uvm_test_top.env.agt.driver [AXI_LITE_DRV] READ addr=0x00000014 rdata=0x00000000 resp=0x0 ar_delay=1 r_ready_delay=1
UVM_INFO ../tb/agent/axi_lite_monitor.sv(123) @ 395000: uvm_test_top.env.agt.monitor [AXI_LITE_MON] WRITE addr=0x00000014 data=0xa5a5f00d strb=0xf resp=0x0 order=AXI_LITE_AW_W_SAME b_wait=0
UVM_INFO ../tb/env/axi_lite_scoreboard.sv(181) @ 395000: uvm_test_top.env.scb [AXI_LITE_SCB] Model write: addr=0x00000014 effective_addr=0x14 data=0xa5a5f00d strb=0xf
UVM_INFO ../tb/agent/axi_lite_driver.sv(119) @ 405000: uvm_test_top.env.agt.driver [AXI_LITE_DRV] WRITE addr=0x00000014 data=0xa5a5f00d strb=0xf resp=0x0 aw_delay=0 w_delay=0 b_ready_delay=0
UVM_INFO ../tb/agent/axi_lite_monitor.sv(175) @ 435000: uvm_test_top.env.agt.monitor [AXI_LITE_MON] READ addr=0x00000014 rdata=0xa5a5f00d resp=0x0 r_wait=0
UVM_INFO ../tb/env/axi_lite_scoreboard.sv(267) @ 435000: uvm_test_top.env.scb [AXI_LITE_SCB] Read match: addr=0x00000014 data=0xa5a5f00d
UVM_INFO ../tb/agent/axi_lite_driver.sv(192) @ 445000: uvm_test_top.env.agt.driver [AXI_LITE_DRV] READ addr=0x00000014 rdata=0xa5a5f00d resp=0x0 ar_delay=0 r_ready_delay=0
UVM_INFO ../tb/agent/axi_lite_monitor.sv(175) @ 485000: uvm_test_top.env.agt.monitor [AXI_LITE_MON] READ addr=0x00000014 rdata=0xa5a5f00d resp=0x0 r_wait=0
UVM_INFO ../tb/env/axi_lite_scoreboard.sv(267) @ 485000: uvm_test_top.env.scb [AXI_LITE_SCB] Read match: addr=0x00000014 data=0xa5a5f00d
UVM_INFO ../tb/agent/axi_lite_driver.sv(192) @ 495000: uvm_test_top.env.agt.driver [AXI_LITE_DRV] READ addr=0x00000014 rdata=0xa5a5f00d resp=0x0 ar_delay=1 r_ready_delay=0
UVM_INFO ../tb/agent/axi_lite_monitor.sv(123) @ 535000: uvm_test_top.env.agt.monitor [AXI_LITE_MON] WRITE addr=0x00000018 data=0xcafe5678 strb=0xf resp=0x0 order=AXI_LITE_AW_W_SAME b_wait=1
UVM_INFO ../tb/env/axi_lite_scoreboard.sv(181) @ 535000: uvm_test_top.env.scb [AXI_LITE_SCB] Model write: addr=0x00000018 effective_addr=0x18 data=0xcafe5678 strb=0xf
UVM_INFO ../tb/agent/axi_lite_driver.sv(119) @ 545000: uvm_test_top.env.agt.driver [AXI_LITE_DRV] WRITE addr=0x00000018 data=0xcafe5678 strb=0xf resp=0x0 aw_delay=0 w_delay=0 b_ready_delay=1
UVM_INFO ../tb/agent/axi_lite_monitor.sv(175) @ 595000: uvm_test_top.env.agt.monitor [AXI_LITE_MON] READ addr=0x00000018 rdata=0xcafe5678 resp=0x0 r_wait=2
UVM_INFO ../tb/env/axi_lite_scoreboard.sv(267) @ 595000: uvm_test_top.env.scb [AXI_LITE_SCB] Read match: addr=0x00000018 data=0xcafe5678
UVM_INFO ../tb/agent/axi_lite_driver.sv(192) @ 605000: uvm_test_top.env.agt.driver [AXI_LITE_DRV] READ addr=0x00000018 rdata=0xcafe5678 resp=0x0 ar_delay=0 r_ready_delay=1
UVM_INFO /opt/synopsys/vcs/V-2023.12-SP2-1/etc/uvm/base/uvm_objection.svh(1274) @ 705000: reporter [TEST_DONE] 'run' phase is ready to proceed to the 'extract' phase
UVM_INFO ../tb/env/axi_lite_cov.sv(157) @ 705000: uvm_test_top.env.cov [AXI_LITE_COV] AXI-Lite functional coverage = 46.10%
UVM_INFO ../tb/env/axi_lite_cov.sv(161) @ 705000: uvm_test_top.env.cov [AXI_LITE_COV] cmd_addr_cross = 25.00%
UVM_INFO ../tb/env/axi_lite_cov.sv(165) @ 705000: uvm_test_top.env.cov [AXI_LITE_COV] addr_strb_cross = 1.67%
UVM_INFO ../tb/env/axi_lite_cov.sv(169) @ 705000: uvm_test_top.env.cov [AXI_LITE_COV] cmd_resp_cross = 100.00%
UVM_INFO ../tb/env/axi_lite_cov.sv(173) @ 705000: uvm_test_top.env.cov [AXI_LITE_COV] wr_order_cp = 100.00%
UVM_INFO ../tb/env/axi_lite_cov.sv(177) @ 705000: uvm_test_top.env.cov [AXI_LITE_COV] b_wait_cp = 66.67%
UVM_INFO ../tb/env/axi_lite_cov.sv(181) @ 705000: uvm_test_top.env.cov [AXI_LITE_COV] r_wait_cp = 66.67%
UVM_INFO ../tb/env/axi_lite_cov.sv(185) @ 705000: uvm_test_top.env.cov [AXI_LITE_COV] wr_order_strb_cross = 6.67%
UVM_INFO ../tb/env/axi_lite_cov.sv(200) @ 705000: uvm_test_top.env.cov [AXI_LITE_COV] prot_cp = 62.50%
UVM_INFO ../tb/env/axi_lite_cov.sv(204) @ 705000: uvm_test_top.env.cov [AXI_LITE_COV] prot_resp_cross = 31.25%
UVM_INFO ../tb/env/axi_lite_scoreboard.sv(290) @ 705000: uvm_test_top.env.scb [AXI_LITE_SCB] Scoreboard passed: read_checks=6
UVM_INFO ../tb/env/axi_lite_scoreboard.sv(293) @ 705000: uvm_test_top.env.scb [AXI_LITE_SCB] Direct load checks observed: direct_load_count=0

--- UVM Report Summary ---

** Report counts by severity
UVM_INFO :   47
UVM_WARNING :    0
UVM_ERROR :    0
UVM_FATAL :    0
** Report counts by id
[AXI_LITE_COV]    10
[AXI_LITE_DRV]    11
[AXI_LITE_MON]    11
[AXI_LITE_SCB]    13
[RNTST]     1
[TEST_DONE]     1
$finish called from file "/opt/synopsys/vcs/V-2023.12-SP2-1/etc/uvm/base/uvm_root.svh", line 437.
$finish at simulation time               705000
           V C S   S i m u l a t i o n   R e p o r t 
Time: 705000 ps
CPU Time:      0.270 seconds;       Data structure size:   0.6Mb
Mon Jun 22 01:44:05 2026
