Command: /home/xz974/UVM_Learning/UVM_Learning/AXI_LITE/sim/./simv +UVM_TESTNAME=async_fifo_test -l run.log
Chronologic VCS simulator copyright 1991-2023
Contains Synopsys proprietary information.
Compiler version V-2023.12-SP2-1_Full64; Runtime version V-2023.12-SP2-1_Full64;  Jun 11 01:49 2026
----------------------------------------------------------------
UVM-1.1d.Synopsys
(C) 2007-2013 Mentor Graphics Corporation
(C) 2007-2013 Cadence Design Systems, Inc.
(C) 2006-2013 Synopsys, Inc.
(C) 2011-2013 Cypress Semiconductor Corp.
----------------------------------------------------------------

  ***********       IMPORTANT RELEASE NOTES         ************

  You are using a version of the UVM library that has been compiled
  with `UVM_NO_DEPRECATED undefined.
  See http://www.eda.org/svdb/view.php?id=3313 for more details.

  You are using a version of the UVM library that has been compiled
  with `UVM_OBJECT_MUST_HAVE_CONSTRUCTOR undefined.
  See http://www.eda.org/svdb/view.php?id=3770 for more details.

      (Specify +UVM_NO_RELNOTES to turn off this notice)

[95000] AXI READ START addr=0x00000000
[125000] AXI READ OK addr=0x00000000 data=0x00000000 resp=OKAY
[135000] RESET DEFAULT TEST PASSED: addr=0x00000000 data=0x00000000
[135000] AXI WRITE START addr=0x00000000 data=0x12345678 strb=0xf
[165000] AXI WRITE OK addr=0x00000000 resp=OKAY
[175000] AXI READ START addr=0x00000000
[205000] AXI READ OK addr=0x00000000 data=0x12345678 resp=OKAY
[215000] BASIC WRITE/READ TEST PASSED: addr=0x00000000 data=0x12345678
[215000] AXI WRITE START addr=0x00000000 data=0xffffffff strb=0xf
[245000] AXI WRITE OK addr=0x00000000 resp=OKAY
[255000] AXI WRITE START addr=0x00000000 data=0x0000aa00 strb=0x2
[285000] AXI WRITE OK addr=0x00000000 resp=OKAY
[295000] AXI READ START addr=0x00000000
[325000] AXI READ OK addr=0x00000000 data=0xffffaaff resp=OKAY
[335000] BYTE STROBE TEST PASSED: addr=0x00000000 data=0xffffaaff
[335000] AXI WRITE START addr=0x00000004 data=0xdeadbeef strb=0xf
[365000] AXI WRITE OK addr=0x00000004 resp=OKAY
[375000] AXI WRITE START addr=0x00000008 data=0xcafecafe strb=0xf
[405000] AXI WRITE OK addr=0x00000008 resp=OKAY
[415000] AXI READ START addr=0x00000000
[445000] AXI READ OK addr=0x00000000 data=0xffffaaff resp=OKAY
[455000] MULTI ADDR TEST ADDR0 PASSED: addr=0x00000000 data=0xffffaaff
[455000] AXI READ START addr=0x00000004
[485000] AXI READ OK addr=0x00000004 data=0xdeadbeef resp=OKAY
[495000] MULTI ADDR TEST ADDR4 PASSED: addr=0x00000004 data=0xdeadbeef
[495000] AXI READ START addr=0x00000008
[525000] AXI READ OK addr=0x00000008 data=0xcafecafe resp=OKAY
[535000] MULTI ADDR TEST ADDR8 PASSED: addr=0x00000008 data=0xcafecafe
[635000] AXI READ START addr=0x00000000
[665000] AXI READ OK addr=0x00000000 data=0x00000000 resp=OKAY
[675000] POST RESET TEST ADDR0 PASSED: addr=0x00000000 data=0x00000000
[675000] AXI READ START addr=0x00000004
[705000] AXI READ OK addr=0x00000004 data=0x00000000 resp=OKAY
[715000] POST RESET TEST ADDR4 PASSED: addr=0x00000004 data=0x00000000
[715000] AXI READ START addr=0x00000008
[745000] AXI READ OK addr=0x00000008 data=0x00000000 resp=OKAY
[755000] POST RESET TEST ADDR8 PASSED: addr=0x00000008 data=0x00000000
[755000] ALL DIRECTED TESTS PASSED
$finish called from file "../tb/tb_axi_lite_regs.sv", line 254.
$finish at simulation time               855000
           V C S   S i m u l a t i o n   R e p o r t 
Time: 855000 ps
CPU Time:      0.210 seconds;       Data structure size:   0.4Mb
Thu Jun 11 01:49:01 2026
