Command: /home/xz974/UVM_Learning/UVM_Learning/AXI_LITE/sim/./simv +UVM_TESTNAME=axi_lite_test -l run.log
Chronologic VCS simulator copyright 1991-2023
Contains Synopsys proprietary information.
Compiler version V-2023.12-SP2-1_Full64; Runtime version V-2023.12-SP2-1_Full64;  Jun 18 02:01 2026
----------------------------------------------------------------
UVM-1.1d.Synopsys
(C) 2007-2013 Mentor Graphics Corporation
(C) 2007-2013 Cadence Design Systems, Inc.
(C) 2006-2013 Synopsys, Inc.
(C) 2011-2013 Cypress Semiconductor Corp.
----------------------------------------------------------------

  ***********       IMPORTANT RELEASE NOTES         ************

  You are using a version of the UVM library that has been compiled
  with `UVM_NO_DEPRECATED undefined.
  See http://www.eda.org/svdb/view.php?id=3313 for more details.

  You are using a version of the UVM library that has been compiled
  with `UVM_OBJECT_MUST_HAVE_CONSTRUCTOR undefined.
  See http://www.eda.org/svdb/view.php?id=3770 for more details.

      (Specify +UVM_NO_RELNOTES to turn off this notice)

UVM_INFO @ 0: reporter [RNTST] Running test axi_lite_test...
UVM_INFO ../tb/agent/axi_lite_monitor.sv(167) @ 105000: uvm_test_top.env.agt.monitor [AXI_LITE_MON] READ addr=0x00000000 rdata=0x00000000 resp=0x0 r_wait=1
UVM_INFO ../tb/env/axi_lite_scoreboard.sv(113) @ 105000: uvm_test_top.env.scb [AXI_LITE_SCB] Read match: addr=0x00000000 data=0x00000000
UVM_INFO ../tb/agent/axi_lite_driver.sv(133) @ 115000: uvm_test_top.env.agt.driver [AXI_LITE_DRV] READ addr=0x00000000 rdata=0x00000000 resp=0x0 ar_delay=0 r_ready_delay=0
UVM_INFO ../tb/agent/axi_lite_monitor.sv(167) @ 175000: uvm_test_top.env.agt.monitor [AXI_LITE_MON] READ addr=0x00000004 rdata=0x00000000 resp=0x0 r_wait=2
UVM_INFO ../tb/env/axi_lite_scoreboard.sv(113) @ 175000: uvm_test_top.env.scb [AXI_LITE_SCB] Read match: addr=0x00000004 data=0x00000000
UVM_INFO ../tb/agent/axi_lite_driver.sv(133) @ 185000: uvm_test_top.env.agt.driver [AXI_LITE_DRV] READ addr=0x00000004 rdata=0x00000000 resp=0x0 ar_delay=1 r_ready_delay=1
UVM_INFO ../tb/agent/axi_lite_monitor.sv(167) @ 265000: uvm_test_top.env.agt.monitor [AXI_LITE_MON] READ addr=0x00000008 rdata=0x00000000 resp=0x0 r_wait=3
UVM_INFO ../tb/env/axi_lite_scoreboard.sv(113) @ 265000: uvm_test_top.env.scb [AXI_LITE_SCB] Read match: addr=0x00000008 data=0x00000000
UVM_INFO ../tb/agent/axi_lite_driver.sv(133) @ 275000: uvm_test_top.env.agt.driver [AXI_LITE_DRV] READ addr=0x00000008 rdata=0x00000000 resp=0x0 ar_delay=2 r_ready_delay=2
UVM_INFO ../tb/agent/axi_lite_monitor.sv(167) @ 345000: uvm_test_top.env.agt.monitor [AXI_LITE_MON] READ addr=0x0000000c rdata=0x00000000 resp=0x0 r_wait=4
UVM_INFO ../tb/env/axi_lite_scoreboard.sv(113) @ 345000: uvm_test_top.env.scb [AXI_LITE_SCB] Read match: addr=0x0000000c data=0x00000000
UVM_INFO ../tb/agent/axi_lite_driver.sv(133) @ 355000: uvm_test_top.env.agt.driver [AXI_LITE_DRV] READ addr=0x0000000c rdata=0x00000000 resp=0x0 ar_delay=0 r_ready_delay=3
UVM_INFO ../tb/agent/axi_lite_monitor.sv(167) @ 405000: uvm_test_top.env.agt.monitor [AXI_LITE_MON] READ addr=0x00000010 rdata=0x00000000 resp=0x0 r_wait=1
UVM_INFO ../tb/env/axi_lite_scoreboard.sv(113) @ 405000: uvm_test_top.env.scb [AXI_LITE_SCB] Read match: addr=0x00000010 data=0x00000000
UVM_INFO ../tb/agent/axi_lite_driver.sv(133) @ 415000: uvm_test_top.env.agt.driver [AXI_LITE_DRV] READ addr=0x00000010 rdata=0x00000000 resp=0x0 ar_delay=1 r_ready_delay=0
UVM_INFO ../tb/agent/axi_lite_monitor.sv(167) @ 485000: uvm_test_top.env.agt.monitor [AXI_LITE_MON] READ addr=0x00000014 rdata=0x00000000 resp=0x0 r_wait=2
UVM_INFO ../tb/env/axi_lite_scoreboard.sv(113) @ 485000: uvm_test_top.env.scb [AXI_LITE_SCB] Read match: addr=0x00000014 data=0x00000000
UVM_INFO ../tb/agent/axi_lite_driver.sv(133) @ 495000: uvm_test_top.env.agt.driver [AXI_LITE_DRV] READ addr=0x00000014 rdata=0x00000000 resp=0x0 ar_delay=2 r_ready_delay=1
UVM_INFO ../tb/agent/axi_lite_monitor.sv(167) @ 555000: uvm_test_top.env.agt.monitor [AXI_LITE_MON] READ addr=0x00000018 rdata=0x00000000 resp=0x0 r_wait=3
UVM_INFO ../tb/env/axi_lite_scoreboard.sv(113) @ 555000: uvm_test_top.env.scb [AXI_LITE_SCB] Read match: addr=0x00000018 data=0x00000000
UVM_INFO ../tb/agent/axi_lite_driver.sv(133) @ 565000: uvm_test_top.env.agt.driver [AXI_LITE_DRV] READ addr=0x00000018 rdata=0x00000000 resp=0x0 ar_delay=0 r_ready_delay=2
UVM_INFO ../tb/agent/axi_lite_monitor.sv(167) @ 645000: uvm_test_top.env.agt.monitor [AXI_LITE_MON] READ addr=0x0000001c rdata=0x00000000 resp=0x0 r_wait=4
UVM_INFO ../tb/env/axi_lite_scoreboard.sv(113) @ 645000: uvm_test_top.env.scb [AXI_LITE_SCB] Read match: addr=0x0000001c data=0x00000000
UVM_INFO ../tb/agent/axi_lite_driver.sv(133) @ 655000: uvm_test_top.env.agt.driver [AXI_LITE_DRV] READ addr=0x0000001c rdata=0x00000000 resp=0x0 ar_delay=1 r_ready_delay=3
UVM_INFO ../tb/agent/axi_lite_monitor.sv(119) @ 695000: uvm_test_top.env.agt.monitor [AXI_LITE_MON] WRITE addr=0x00000000 data=0x00000000 strb=0xf resp=0x0 order=AXI_LITE_AW_BEFORE_W b_wait=0
UVM_INFO ../tb/env/axi_lite_scoreboard.sv(71) @ 695000: uvm_test_top.env.scb [AXI_LITE_SCB] Model write: addr=0x00000000 data=0x00000000 strb=0xf
UVM_INFO ../tb/agent/axi_lite_driver.sv(94) @ 705000: uvm_test_top.env.agt.driver [AXI_LITE_DRV] WRITE addr=0x00000000 data=0x00000000 strb=0xf resp=0x0 aw_delay=0 w_delay=1 b_ready_delay=0
UVM_INFO ../tb/agent/axi_lite_monitor.sv(167) @ 775000: uvm_test_top.env.agt.monitor [AXI_LITE_MON] READ addr=0x00000000 rdata=0x00000000 resp=0x0 r_wait=3
UVM_INFO ../tb/env/axi_lite_scoreboard.sv(113) @ 775000: uvm_test_top.env.scb [AXI_LITE_SCB] Read match: addr=0x00000000 data=0x00000000
UVM_INFO ../tb/agent/axi_lite_driver.sv(133) @ 785000: uvm_test_top.env.agt.driver [AXI_LITE_DRV] READ addr=0x00000000 rdata=0x00000000 resp=0x0 ar_delay=1 r_ready_delay=2
UVM_INFO ../tb/agent/axi_lite_monitor.sv(119) @ 845000: uvm_test_top.env.agt.monitor [AXI_LITE_MON] WRITE addr=0x00000004 data=0xffffffff strb=0xf resp=0x0 order=AXI_LITE_AW_BEFORE_W b_wait=1
UVM_INFO ../tb/env/axi_lite_scoreboard.sv(71) @ 845000: uvm_test_top.env.scb [AXI_LITE_SCB] Model write: addr=0x00000004 data=0xffffffff strb=0xf
UVM_INFO ../tb/agent/axi_lite_driver.sv(94) @ 855000: uvm_test_top.env.agt.driver [AXI_LITE_DRV] WRITE addr=0x00000004 data=0xffffffff strb=0xf resp=0x0 aw_delay=1 w_delay=2 b_ready_delay=1
UVM_INFO ../tb/agent/axi_lite_monitor.sv(167) @ 945000: uvm_test_top.env.agt.monitor [AXI_LITE_MON] READ addr=0x00000004 rdata=0xffffffff resp=0x0 r_wait=4
UVM_INFO ../tb/env/axi_lite_scoreboard.sv(113) @ 945000: uvm_test_top.env.scb [AXI_LITE_SCB] Read match: addr=0x00000004 data=0xffffffff
UVM_INFO ../tb/agent/axi_lite_driver.sv(133) @ 955000: uvm_test_top.env.agt.driver [AXI_LITE_DRV] READ addr=0x00000004 rdata=0xffffffff resp=0x0 ar_delay=2 r_ready_delay=3
UVM_INFO ../tb/agent/axi_lite_monitor.sv(119) @ 1025000: uvm_test_top.env.agt.monitor [AXI_LITE_MON] WRITE addr=0x00000008 data=0xaaaaaaaa strb=0xf resp=0x0 order=AXI_LITE_W_BEFORE_AW b_wait=2
UVM_INFO ../tb/env/axi_lite_scoreboard.sv(71) @ 1025000: uvm_test_top.env.scb [AXI_LITE_SCB] Model write: addr=0x00000008 data=0xaaaaaaaa strb=0xf
UVM_INFO ../tb/agent/axi_lite_driver.sv(94) @ 1035000: uvm_test_top.env.agt.driver [AXI_LITE_DRV] WRITE addr=0x00000008 data=0xaaaaaaaa strb=0xf resp=0x0 aw_delay=2 w_delay=0 b_ready_delay=2
UVM_INFO ../tb/agent/axi_lite_monitor.sv(167) @ 1075000: uvm_test_top.env.agt.monitor [AXI_LITE_MON] READ addr=0x00000008 rdata=0xaaaaaaaa resp=0x0 r_wait=1
UVM_INFO ../tb/env/axi_lite_scoreboard.sv(113) @ 1075000: uvm_test_top.env.scb [AXI_LITE_SCB] Read match: addr=0x00000008 data=0xaaaaaaaa
UVM_INFO ../tb/agent/axi_lite_driver.sv(133) @ 1085000: uvm_test_top.env.agt.driver [AXI_LITE_DRV] READ addr=0x00000008 rdata=0xaaaaaaaa resp=0x0 ar_delay=0 r_ready_delay=0
UVM_INFO ../tb/agent/axi_lite_monitor.sv(119) @ 1155000: uvm_test_top.env.agt.monitor [AXI_LITE_MON] WRITE addr=0x0000000c data=0x55555555 strb=0xf resp=0x0 order=AXI_LITE_AW_BEFORE_W b_wait=3
UVM_INFO ../tb/env/axi_lite_scoreboard.sv(71) @ 1155000: uvm_test_top.env.scb [AXI_LITE_SCB] Model write: addr=0x0000000c data=0x55555555 strb=0xf
UVM_INFO ../tb/agent/axi_lite_driver.sv(94) @ 1165000: uvm_test_top.env.agt.driver [AXI_LITE_DRV] WRITE addr=0x0000000c data=0x55555555 strb=0xf resp=0x0 aw_delay=0 w_delay=1 b_ready_delay=3
UVM_INFO ../tb/agent/axi_lite_monitor.sv(167) @ 1225000: uvm_test_top.env.agt.monitor [AXI_LITE_MON] READ addr=0x0000000c rdata=0x55555555 resp=0x0 r_wait=2
UVM_INFO ../tb/env/axi_lite_scoreboard.sv(113) @ 1225000: uvm_test_top.env.scb [AXI_LITE_SCB] Read match: addr=0x0000000c data=0x55555555
UVM_INFO ../tb/agent/axi_lite_driver.sv(133) @ 1235000: uvm_test_top.env.agt.driver [AXI_LITE_DRV] READ addr=0x0000000c rdata=0x55555555 resp=0x0 ar_delay=1 r_ready_delay=1
UVM_INFO ../tb/agent/axi_lite_monitor.sv(119) @ 1285000: uvm_test_top.env.agt.monitor [AXI_LITE_MON] WRITE addr=0x00000010 data=0x12345678 strb=0xf resp=0x0 order=AXI_LITE_AW_BEFORE_W b_wait=0
UVM_INFO ../tb/env/axi_lite_scoreboard.sv(71) @ 1285000: uvm_test_top.env.scb [AXI_LITE_SCB] Model write: addr=0x00000010 data=0x12345678 strb=0xf
UVM_INFO ../tb/agent/axi_lite_driver.sv(94) @ 1295000: uvm_test_top.env.agt.driver [AXI_LITE_DRV] WRITE addr=0x00000010 data=0x12345678 strb=0xf resp=0x0 aw_delay=1 w_delay=2 b_ready_delay=0
UVM_INFO ../tb/agent/axi_lite_monitor.sv(167) @ 1375000: uvm_test_top.env.agt.monitor [AXI_LITE_MON] READ addr=0x00000010 rdata=0x12345678 resp=0x0 r_wait=3
UVM_INFO ../tb/env/axi_lite_scoreboard.sv(113) @ 1375000: uvm_test_top.env.scb [AXI_LITE_SCB] Read match: addr=0x00000010 data=0x12345678
UVM_INFO ../tb/agent/axi_lite_driver.sv(133) @ 1385000: uvm_test_top.env.agt.driver [AXI_LITE_DRV] READ addr=0x00000010 rdata=0x12345678 resp=0x0 ar_delay=2 r_ready_delay=2
UVM_INFO ../tb/agent/axi_lite_monitor.sv(119) @ 1445000: uvm_test_top.env.agt.monitor [AXI_LITE_MON] WRITE addr=0x00000014 data=0xcafebeef strb=0xf resp=0x0 order=AXI_LITE_W_BEFORE_AW b_wait=1
UVM_INFO ../tb/env/axi_lite_scoreboard.sv(71) @ 1445000: uvm_test_top.env.scb [AXI_LITE_SCB] Model write: addr=0x00000014 data=0xcafebeef strb=0xf
UVM_INFO ../tb/agent/axi_lite_driver.sv(94) @ 1455000: uvm_test_top.env.agt.driver [AXI_LITE_DRV] WRITE addr=0x00000014 data=0xcafebeef strb=0xf resp=0x0 aw_delay=2 w_delay=0 b_ready_delay=1
UVM_INFO ../tb/agent/axi_lite_monitor.sv(167) @ 1525000: uvm_test_top.env.agt.monitor [AXI_LITE_MON] READ addr=0x00000014 rdata=0xcafebeef resp=0x0 r_wait=4
UVM_INFO ../tb/env/axi_lite_scoreboard.sv(113) @ 1525000: uvm_test_top.env.scb [AXI_LITE_SCB] Read match: addr=0x00000014 data=0xcafebeef
UVM_INFO ../tb/agent/axi_lite_driver.sv(133) @ 1535000: uvm_test_top.env.agt.driver [AXI_LITE_DRV] READ addr=0x00000014 rdata=0xcafebeef resp=0x0 ar_delay=0 r_ready_delay=3
UVM_INFO ../tb/agent/axi_lite_monitor.sv(119) @ 1595000: uvm_test_top.env.agt.monitor [AXI_LITE_MON] WRITE addr=0x00000018 data=0x00000000 strb=0xf resp=0x0 order=AXI_LITE_AW_BEFORE_W b_wait=2
UVM_INFO ../tb/env/axi_lite_scoreboard.sv(71) @ 1595000: uvm_test_top.env.scb [AXI_LITE_SCB] Model write: addr=0x00000018 data=0x00000000 strb=0xf
UVM_INFO ../tb/agent/axi_lite_driver.sv(94) @ 1605000: uvm_test_top.env.agt.driver [AXI_LITE_DRV] WRITE addr=0x00000018 data=0x00000000 strb=0xf resp=0x0 aw_delay=0 w_delay=1 b_ready_delay=2
UVM_INFO ../tb/agent/axi_lite_monitor.sv(167) @ 1655000: uvm_test_top.env.agt.monitor [AXI_LITE_MON] READ addr=0x00000018 rdata=0x00000000 resp=0x0 r_wait=1
UVM_INFO ../tb/env/axi_lite_scoreboard.sv(113) @ 1655000: uvm_test_top.env.scb [AXI_LITE_SCB] Read match: addr=0x00000018 data=0x00000000
UVM_INFO ../tb/agent/axi_lite_driver.sv(133) @ 1665000: uvm_test_top.env.agt.driver [AXI_LITE_DRV] READ addr=0x00000018 rdata=0x00000000 resp=0x0 ar_delay=1 r_ready_delay=0
UVM_INFO ../tb/agent/axi_lite_monitor.sv(119) @ 1745000: uvm_test_top.env.agt.monitor [AXI_LITE_MON] WRITE addr=0x0000001c data=0xffffffff strb=0xf resp=0x0 order=AXI_LITE_AW_BEFORE_W b_wait=3
UVM_INFO ../tb/env/axi_lite_scoreboard.sv(71) @ 1745000: uvm_test_top.env.scb [AXI_LITE_SCB] Model write: addr=0x0000001c data=0xffffffff strb=0xf
UVM_INFO ../tb/agent/axi_lite_driver.sv(94) @ 1755000: uvm_test_top.env.agt.driver [AXI_LITE_DRV] WRITE addr=0x0000001c data=0xffffffff strb=0xf resp=0x0 aw_delay=1 w_delay=2 b_ready_delay=3
UVM_INFO ../tb/agent/axi_lite_monitor.sv(167) @ 1825000: uvm_test_top.env.agt.monitor [AXI_LITE_MON] READ addr=0x0000001c rdata=0xffffffff resp=0x0 r_wait=2
UVM_INFO ../tb/env/axi_lite_scoreboard.sv(113) @ 1825000: uvm_test_top.env.scb [AXI_LITE_SCB] Read match: addr=0x0000001c data=0xffffffff
UVM_INFO ../tb/agent/axi_lite_driver.sv(133) @ 1835000: uvm_test_top.env.agt.driver [AXI_LITE_DRV] READ addr=0x0000001c rdata=0xffffffff resp=0x0 ar_delay=2 r_ready_delay=1
UVM_INFO ../tb/agent/axi_lite_monitor.sv(119) @ 1885000: uvm_test_top.env.agt.monitor [AXI_LITE_MON] WRITE addr=0x00000000 data=0x00000110 strb=0x1 resp=0x0 order=AXI_LITE_AW_W_SAME b_wait=2
UVM_INFO ../tb/env/axi_lite_scoreboard.sv(71) @ 1885000: uvm_test_top.env.scb [AXI_LITE_SCB] Model write: addr=0x00000000 data=0x00000110 strb=0x1
UVM_INFO ../tb/agent/axi_lite_driver.sv(94) @ 1895000: uvm_test_top.env.agt.driver [AXI_LITE_DRV] WRITE addr=0x00000000 data=0x00000110 strb=0x1 resp=0x0 aw_delay=0 w_delay=0 b_ready_delay=2
UVM_INFO ../tb/agent/axi_lite_monitor.sv(167) @ 1975000: uvm_test_top.env.agt.monitor [AXI_LITE_MON] READ addr=0x00000000 rdata=0x00000010 resp=0x0 r_wait=4
UVM_INFO ../tb/env/axi_lite_scoreboard.sv(113) @ 1975000: uvm_test_top.env.scb [AXI_LITE_SCB] Read match: addr=0x00000000 data=0x00000010
UVM_INFO ../tb/agent/axi_lite_driver.sv(133) @ 1985000: uvm_test_top.env.agt.driver [AXI_LITE_DRV] READ addr=0x00000000 rdata=0x00000010 resp=0x0 ar_delay=1 r_ready_delay=3
UVM_INFO ../tb/agent/axi_lite_monitor.sv(119) @ 2055000: uvm_test_top.env.agt.monitor [AXI_LITE_MON] WRITE addr=0x00000000 data=0xfffffedc strb=0x2 resp=0x0 order=AXI_LITE_AW_W_SAME b_wait=3
UVM_INFO ../tb/env/axi_lite_scoreboard.sv(71) @ 2055000: uvm_test_top.env.scb [AXI_LITE_SCB] Model write: addr=0x00000000 data=0xfffffedc strb=0x2
UVM_INFO ../tb/agent/axi_lite_driver.sv(94) @ 2065000: uvm_test_top.env.agt.driver [AXI_LITE_DRV] WRITE addr=0x00000000 data=0xfffffedc strb=0x2 resp=0x0 aw_delay=1 w_delay=1 b_ready_delay=3
UVM_INFO ../tb/agent/axi_lite_monitor.sv(167) @ 2165000: uvm_test_top.env.agt.monitor [AXI_LITE_MON] READ addr=0x00000000 rdata=0x0000fe10 resp=0x0 r_wait=5
UVM_INFO ../tb/env/axi_lite_scoreboard.sv(113) @ 2165000: uvm_test_top.env.scb [AXI_LITE_SCB] Read match: addr=0x00000000 data=0x0000fe10
UVM_INFO ../tb/agent/axi_lite_driver.sv(133) @ 2175000: uvm_test_top.env.agt.driver [AXI_LITE_DRV] READ addr=0x00000000 rdata=0x0000fe10 resp=0x0 ar_delay=2 r_ready_delay=4
UVM_INFO ../tb/agent/axi_lite_monitor.sv(119) @ 2265000: uvm_test_top.env.agt.monitor [AXI_LITE_MON] WRITE addr=0x00000000 data=0xaaaaab98 strb=0x3 resp=0x0 order=AXI_LITE_AW_W_SAME b_wait=4
UVM_INFO ../tb/env/axi_lite_scoreboard.sv(71) @ 2265000: uvm_test_top.env.scb [AXI_LITE_SCB] Model write: addr=0x00000000 data=0xaaaaab98 strb=0x3
UVM_INFO ../tb/agent/axi_lite_driver.sv(94) @ 2275000: uvm_test_top.env.agt.driver [AXI_LITE_DRV] WRITE addr=0x00000000 data=0xaaaaab98 strb=0x3 resp=0x0 aw_delay=2 w_delay=2 b_ready_delay=4
UVM_INFO ../tb/agent/axi_lite_monitor.sv(167) @ 2345000: uvm_test_top.env.agt.monitor [AXI_LITE_MON] READ addr=0x00000000 rdata=0x0000ab98 resp=0x0 r_wait=1
UVM_INFO ../tb/env/axi_lite_scoreboard.sv(113) @ 2345000: uvm_test_top.env.scb [AXI_LITE_SCB] Read match: addr=0x00000000 data=0x0000ab98
UVM_INFO ../tb/agent/axi_lite_driver.sv(133) @ 2355000: uvm_test_top.env.agt.driver [AXI_LITE_DRV] READ addr=0x00000000 rdata=0x0000ab98 resp=0x0 ar_delay=3 r_ready_delay=0
UVM_INFO ../tb/agent/axi_lite_monitor.sv(119) @ 2415000: uvm_test_top.env.agt.monitor [AXI_LITE_MON] WRITE addr=0x00000000 data=0x55555410 strb=0x4 resp=0x0 order=AXI_LITE_AW_W_SAME b_wait=0
UVM_INFO ../tb/env/axi_lite_scoreboard.sv(71) @ 2415000: uvm_test_top.env.scb [AXI_LITE_SCB] Model write: addr=0x00000000 data=0x55555410 strb=0x4
UVM_INFO ../tb/agent/axi_lite_driver.sv(94) @ 2425000: uvm_test_top.env.agt.driver [AXI_LITE_DRV] WRITE addr=0x00000000 data=0x55555410 strb=0x4 resp=0x0 aw_delay=3 w_delay=3 b_ready_delay=0
UVM_INFO ../tb/agent/axi_lite_monitor.sv(167) @ 2475000: uvm_test_top.env.agt.monitor [AXI_LITE_MON] READ addr=0x00000000 rdata=0x0055ab98 resp=0x0 r_wait=2
UVM_INFO ../tb/env/axi_lite_scoreboard.sv(113) @ 2475000: uvm_test_top.env.scb [AXI_LITE_SCB] Read match: addr=0x00000000 data=0x0055ab98
UVM_INFO ../tb/agent/axi_lite_driver.sv(133) @ 2485000: uvm_test_top.env.agt.driver [AXI_LITE_DRV] READ addr=0x00000000 rdata=0x0055ab98 resp=0x0 ar_delay=0 r_ready_delay=1
UVM_INFO ../tb/agent/axi_lite_monitor.sv(119) @ 2525000: uvm_test_top.env.agt.monitor [AXI_LITE_MON] WRITE addr=0x00000000 data=0x1234572c strb=0x5 resp=0x0 order=AXI_LITE_AW_W_SAME b_wait=1
UVM_INFO ../tb/env/axi_lite_scoreboard.sv(71) @ 2525000: uvm_test_top.env.scb [AXI_LITE_SCB] Model write: addr=0x00000000 data=0x1234572c strb=0x5
UVM_INFO ../tb/agent/axi_lite_driver.sv(94) @ 2535000: uvm_test_top.env.agt.driver [AXI_LITE_DRV] WRITE addr=0x00000000 data=0x1234572c strb=0x5 resp=0x0 aw_delay=0 w_delay=0 b_ready_delay=1
UVM_INFO ../tb/agent/axi_lite_monitor.sv(167) @ 2605000: uvm_test_top.env.agt.monitor [AXI_LITE_MON] READ addr=0x00000000 rdata=0x0034ab2c resp=0x0 r_wait=3
UVM_INFO ../tb/env/axi_lite_scoreboard.sv(113) @ 2605000: uvm_test_top.env.scb [AXI_LITE_SCB] Read match: addr=0x00000000 data=0x0034ab2c
UVM_INFO ../tb/agent/axi_lite_driver.sv(133) @ 2615000: uvm_test_top.env.agt.driver [AXI_LITE_DRV] READ addr=0x00000000 rdata=0x0034ab2c resp=0x0 ar_delay=1 r_ready_delay=2
UVM_INFO ../tb/agent/axi_lite_monitor.sv(119) @ 2675000: uvm_test_top.env.agt.monitor [AXI_LITE_MON] WRITE addr=0x00000000 data=0xcafebf88 strb=0x6 resp=0x0 order=AXI_LITE_AW_W_SAME b_wait=2
UVM_INFO ../tb/env/axi_lite_scoreboard.sv(71) @ 2675000: uvm_test_top.env.scb [AXI_LITE_SCB] Model write: addr=0x00000000 data=0xcafebf88 strb=0x6
UVM_INFO ../tb/agent/axi_lite_driver.sv(94) @ 2685000: uvm_test_top.env.agt.driver [AXI_LITE_DRV] WRITE addr=0x00000000 data=0xcafebf88 strb=0x6 resp=0x0 aw_delay=1 w_delay=1 b_ready_delay=2
UVM_INFO ../tb/agent/axi_lite_monitor.sv(167) @ 2775000: uvm_test_top.env.agt.monitor [AXI_LITE_MON] READ addr=0x00000000 rdata=0x00febf2c resp=0x0 r_wait=4
UVM_INFO ../tb/env/axi_lite_scoreboard.sv(113) @ 2775000: uvm_test_top.env.scb [AXI_LITE_SCB] Read match: addr=0x00000000 data=0x00febf2c
UVM_INFO ../tb/agent/axi_lite_driver.sv(133) @ 2785000: uvm_test_top.env.agt.driver [AXI_LITE_DRV] READ addr=0x00000000 rdata=0x00febf2c resp=0x0 ar_delay=2 r_ready_delay=3
UVM_INFO ../tb/agent/axi_lite_monitor.sv(119) @ 2865000: uvm_test_top.env.agt.monitor [AXI_LITE_MON] WRITE addr=0x00000000 data=0x00000176 strb=0x7 resp=0x0 order=AXI_LITE_AW_W_SAME b_wait=3
UVM_INFO ../tb/env/axi_lite_scoreboard.sv(71) @ 2865000: uvm_test_top.env.scb [AXI_LITE_SCB] Model write: addr=0x00000000 data=0x00000176 strb=0x7
UVM_INFO ../tb/agent/axi_lite_driver.sv(94) @ 2875000: uvm_test_top.env.agt.driver [AXI_LITE_DRV] WRITE addr=0x00000000 data=0x00000176 strb=0x7 resp=0x0 aw_delay=2 w_delay=2 b_ready_delay=3
UVM_INFO ../tb/agent/axi_lite_monitor.sv(167) @ 2985000: uvm_test_top.env.agt.monitor [AXI_LITE_MON] READ addr=0x00000000 rdata=0x00000176 resp=0x0 r_wait=5
UVM_INFO ../tb/env/axi_lite_scoreboard.sv(113) @ 2985000: uvm_test_top.env.scb [AXI_LITE_SCB] Read match: addr=0x00000000 data=0x00000176
UVM_INFO ../tb/agent/axi_lite_driver.sv(133) @ 2995000: uvm_test_top.env.agt.driver [AXI_LITE_DRV] READ addr=0x00000000 rdata=0x00000176 resp=0x0 ar_delay=3 r_ready_delay=4
UVM_INFO ../tb/agent/axi_lite_monitor.sv(119) @ 3095000: uvm_test_top.env.agt.monitor [AXI_LITE_MON] WRITE addr=0x00000000 data=0xfffffe76 strb=0x8 resp=0x0 order=AXI_LITE_AW_W_SAME b_wait=4
UVM_INFO ../tb/env/axi_lite_scoreboard.sv(71) @ 3095000: uvm_test_top.env.scb [AXI_LITE_SCB] Model write: addr=0x00000000 data=0xfffffe76 strb=0x8
UVM_INFO ../tb/agent/axi_lite_driver.sv(94) @ 3105000: uvm_test_top.env.agt.driver [AXI_LITE_DRV] WRITE addr=0x00000000 data=0xfffffe76 strb=0x8 resp=0x0 aw_delay=3 w_delay=3 b_ready_delay=4
UVM_INFO ../tb/agent/axi_lite_monitor.sv(167) @ 3145000: uvm_test_top.env.agt.monitor [AXI_LITE_MON] READ addr=0x00000000 rdata=0xff000176 resp=0x0 r_wait=1
UVM_INFO ../tb/env/axi_lite_scoreboard.sv(113) @ 3145000: uvm_test_top.env.scb [AXI_LITE_SCB] Read match: addr=0x00000000 data=0xff000176
UVM_INFO ../tb/agent/axi_lite_driver.sv(133) @ 3155000: uvm_test_top.env.agt.driver [AXI_LITE_DRV] READ addr=0x00000000 rdata=0xff000176 resp=0x0 ar_delay=0 r_ready_delay=0
UVM_INFO ../tb/agent/axi_lite_monitor.sv(119) @ 3185000: uvm_test_top.env.agt.monitor [AXI_LITE_MON] WRITE addr=0x00000000 data=0xaaaaab32 strb=0x9 resp=0x0 order=AXI_LITE_AW_W_SAME b_wait=0
UVM_INFO ../tb/env/axi_lite_scoreboard.sv(71) @ 3185000: uvm_test_top.env.scb [AXI_LITE_SCB] Model write: addr=0x00000000 data=0xaaaaab32 strb=0x9
UVM_INFO ../tb/agent/axi_lite_driver.sv(94) @ 3195000: uvm_test_top.env.agt.driver [AXI_LITE_DRV] WRITE addr=0x00000000 data=0xaaaaab32 strb=0x9 resp=0x0 aw_delay=0 w_delay=0 b_ready_delay=0
UVM_INFO ../tb/agent/axi_lite_monitor.sv(167) @ 3255000: uvm_test_top.env.agt.monitor [AXI_LITE_MON] READ addr=0x00000000 rdata=0xaa000132 resp=0x0 r_wait=2
UVM_INFO ../tb/env/axi_lite_scoreboard.sv(113) @ 3255000: uvm_test_top.env.scb [AXI_LITE_SCB] Read match: addr=0x00000000 data=0xaa000132
UVM_INFO ../tb/agent/axi_lite_driver.sv(133) @ 3265000: uvm_test_top.env.agt.driver [AXI_LITE_DRV] READ addr=0x00000000 rdata=0xaa000132 resp=0x0 ar_delay=1 r_ready_delay=1
UVM_INFO ../tb/agent/axi_lite_monitor.sv(119) @ 3315000: uvm_test_top.env.agt.monitor [AXI_LITE_MON] WRITE addr=0x00000000 data=0x555554fe strb=0xa resp=0x0 order=AXI_LITE_AW_W_SAME b_wait=1
UVM_INFO ../tb/env/axi_lite_scoreboard.sv(71) @ 3315000: uvm_test_top.env.scb [AXI_LITE_SCB] Model write: addr=0x00000000 data=0x555554fe strb=0xa
UVM_INFO ../tb/agent/axi_lite_driver.sv(94) @ 3325000: uvm_test_top.env.agt.driver [AXI_LITE_DRV] WRITE addr=0x00000000 data=0x555554fe strb=0xa resp=0x0 aw_delay=1 w_delay=1 b_ready_delay=1
UVM_INFO ../tb/agent/axi_lite_monitor.sv(167) @ 3405000: uvm_test_top.env.agt.monitor [AXI_LITE_MON] READ addr=0x00000000 rdata=0x55005432 resp=0x0 r_wait=3
UVM_INFO ../tb/env/axi_lite_scoreboard.sv(113) @ 3405000: uvm_test_top.env.scb [AXI_LITE_SCB] Read match: addr=0x00000000 data=0x55005432
UVM_INFO ../tb/agent/axi_lite_driver.sv(133) @ 3415000: uvm_test_top.env.agt.driver [AXI_LITE_DRV] READ addr=0x00000000 rdata=0x55005432 resp=0x0 ar_delay=2 r_ready_delay=2
UVM_INFO ../tb/agent/axi_lite_monitor.sv(119) @ 3485000: uvm_test_top.env.agt.monitor [AXI_LITE_MON] WRITE addr=0x00000000 data=0x123457c2 strb=0xb resp=0x0 order=AXI_LITE_AW_W_SAME b_wait=2
UVM_INFO ../tb/env/axi_lite_scoreboard.sv(71) @ 3485000: uvm_test_top.env.scb [AXI_LITE_SCB] Model write: addr=0x00000000 data=0x123457c2 strb=0xb
UVM_INFO ../tb/agent/axi_lite_driver.sv(94) @ 3495000: uvm_test_top.env.agt.driver [AXI_LITE_DRV] WRITE addr=0x00000000 data=0x123457c2 strb=0xb resp=0x0 aw_delay=2 w_delay=2 b_ready_delay=2
UVM_INFO ../tb/agent/axi_lite_monitor.sv(167) @ 3595000: uvm_test_top.env.agt.monitor [AXI_LITE_MON] READ addr=0x00000000 rdata=0x120057c2 resp=0x0 r_wait=4
UVM_INFO ../tb/env/axi_lite_scoreboard.sv(113) @ 3595000: uvm_test_top.env.scb [AXI_LITE_SCB] Read match: addr=0x00000000 data=0x120057c2
UVM_INFO ../tb/agent/axi_lite_driver.sv(133) @ 3605000: uvm_test_top.env.agt.driver [AXI_LITE_DRV] READ addr=0x00000000 rdata=0x120057c2 resp=0x0 ar_delay=3 r_ready_delay=3
UVM_INFO ../tb/agent/axi_lite_monitor.sv(119) @ 3695000: uvm_test_top.env.agt.monitor [AXI_LITE_MON] WRITE addr=0x00000000 data=0xcafebf22 strb=0xc resp=0x0 order=AXI_LITE_AW_W_SAME b_wait=3
UVM_INFO ../tb/env/axi_lite_scoreboard.sv(71) @ 3695000: uvm_test_top.env.scb [AXI_LITE_SCB] Model write: addr=0x00000000 data=0xcafebf22 strb=0xc
UVM_INFO ../tb/agent/axi_lite_driver.sv(94) @ 3705000: uvm_test_top.env.agt.driver [AXI_LITE_DRV] WRITE addr=0x00000000 data=0xcafebf22 strb=0xc resp=0x0 aw_delay=3 w_delay=3 b_ready_delay=3
UVM_INFO ../tb/agent/axi_lite_monitor.sv(167) @ 3785000: uvm_test_top.env.agt.monitor [AXI_LITE_MON] READ addr=0x00000000 rdata=0xcafe57c2 resp=0x0 r_wait=5
UVM_INFO ../tb/env/axi_lite_scoreboard.sv(113) @ 3785000: uvm_test_top.env.scb [AXI_LITE_SCB] Read match: addr=0x00000000 data=0xcafe57c2
UVM_INFO ../tb/agent/axi_lite_driver.sv(133) @ 3795000: uvm_test_top.env.agt.driver [AXI_LITE_DRV] READ addr=0x00000000 rdata=0xcafe57c2 resp=0x0 ar_delay=0 r_ready_delay=4
UVM_INFO ../tb/agent/axi_lite_monitor.sv(119) @ 3865000: uvm_test_top.env.agt.monitor [AXI_LITE_MON] WRITE addr=0x00000000 data=0x000001dc strb=0xd resp=0x0 order=AXI_LITE_AW_W_SAME b_wait=4
UVM_INFO ../tb/env/axi_lite_scoreboard.sv(71) @ 3865000: uvm_test_top.env.scb [AXI_LITE_SCB] Model write: addr=0x00000000 data=0x000001dc strb=0xd
UVM_INFO ../tb/agent/axi_lite_driver.sv(94) @ 3875000: uvm_test_top.env.agt.driver [AXI_LITE_DRV] WRITE addr=0x00000000 data=0x000001dc strb=0xd resp=0x0 aw_delay=0 w_delay=0 b_ready_delay=4
UVM_INFO ../tb/agent/axi_lite_monitor.sv(167) @ 3925000: uvm_test_top.env.agt.monitor [AXI_LITE_MON] READ addr=0x00000000 rdata=0x000057dc resp=0x0 r_wait=1
UVM_INFO ../tb/env/axi_lite_scoreboard.sv(113) @ 3925000: uvm_test_top.env.scb [AXI_LITE_SCB] Read match: addr=0x00000000 data=0x000057dc
UVM_INFO ../tb/agent/axi_lite_driver.sv(133) @ 3935000: uvm_test_top.env.agt.driver [AXI_LITE_DRV] READ addr=0x00000000 rdata=0x000057dc resp=0x0 ar_delay=1 r_ready_delay=0
UVM_INFO ../tb/agent/axi_lite_monitor.sv(119) @ 3975000: uvm_test_top.env.agt.monitor [AXI_LITE_MON] WRITE addr=0x00000000 data=0xfffffe10 strb=0xe resp=0x0 order=AXI_LITE_AW_W_SAME b_wait=0
UVM_INFO ../tb/env/axi_lite_scoreboard.sv(71) @ 3975000: uvm_test_top.env.scb [AXI_LITE_SCB] Model write: addr=0x00000000 data=0xfffffe10 strb=0xe
UVM_INFO ../tb/agent/axi_lite_driver.sv(94) @ 3985000: uvm_test_top.env.agt.driver [AXI_LITE_DRV] WRITE addr=0x00000000 data=0xfffffe10 strb=0xe resp=0x0 aw_delay=1 w_delay=1 b_ready_delay=0
UVM_INFO ../tb/agent/axi_lite_monitor.sv(167) @ 4055000: uvm_test_top.env.agt.monitor [AXI_LITE_MON] READ addr=0x00000000 rdata=0xfffffedc resp=0x0 r_wait=2
UVM_INFO ../tb/env/axi_lite_scoreboard.sv(113) @ 4055000: uvm_test_top.env.scb [AXI_LITE_SCB] Read match: addr=0x00000000 data=0xfffffedc
UVM_INFO ../tb/agent/axi_lite_driver.sv(133) @ 4065000: uvm_test_top.env.agt.driver [AXI_LITE_DRV] READ addr=0x00000000 rdata=0xfffffedc resp=0x0 ar_delay=2 r_ready_delay=1
UVM_INFO ../tb/agent/axi_lite_monitor.sv(119) @ 4125000: uvm_test_top.env.agt.monitor [AXI_LITE_MON] WRITE addr=0x00000000 data=0xaaaaab54 strb=0xf resp=0x0 order=AXI_LITE_AW_W_SAME b_wait=1
UVM_INFO ../tb/env/axi_lite_scoreboard.sv(71) @ 4125000: uvm_test_top.env.scb [AXI_LITE_SCB] Model write: addr=0x00000000 data=0xaaaaab54 strb=0xf
UVM_INFO ../tb/agent/axi_lite_driver.sv(94) @ 4135000: uvm_test_top.env.agt.driver [AXI_LITE_DRV] WRITE addr=0x00000000 data=0xaaaaab54 strb=0xf resp=0x0 aw_delay=2 w_delay=2 b_ready_delay=1
UVM_INFO ../tb/agent/axi_lite_monitor.sv(167) @ 4225000: uvm_test_top.env.agt.monitor [AXI_LITE_MON] READ addr=0x00000000 rdata=0xaaaaab54 resp=0x0 r_wait=3
UVM_INFO ../tb/env/axi_lite_scoreboard.sv(113) @ 4225000: uvm_test_top.env.scb [AXI_LITE_SCB] Read match: addr=0x00000000 data=0xaaaaab54
UVM_INFO ../tb/agent/axi_lite_driver.sv(133) @ 4235000: uvm_test_top.env.agt.driver [AXI_LITE_DRV] READ addr=0x00000000 rdata=0xaaaaab54 resp=0x0 ar_delay=3 r_ready_delay=2
UVM_INFO ../tb/agent/axi_lite_monitor.sv(119) @ 4295000: uvm_test_top.env.agt.monitor [AXI_LITE_MON] WRITE addr=0x00000004 data=0xfffffdec strb=0x1 resp=0x0 order=AXI_LITE_AW_BEFORE_W b_wait=2
UVM_INFO ../tb/env/axi_lite_scoreboard.sv(71) @ 4295000: uvm_test_top.env.scb [AXI_LITE_SCB] Model write: addr=0x00000004 data=0xfffffdec strb=0x1
UVM_INFO ../tb/agent/axi_lite_driver.sv(94) @ 4305000: uvm_test_top.env.agt.driver [AXI_LITE_DRV] WRITE addr=0x00000004 data=0xfffffdec strb=0x1 resp=0x0 aw_delay=0 w_delay=1 b_ready_delay=2
UVM_INFO ../tb/agent/axi_lite_monitor.sv(167) @ 4385000: uvm_test_top.env.agt.monitor [AXI_LITE_MON] READ addr=0x00000004 rdata=0xffffffec resp=0x0 r_wait=4
UVM_INFO ../tb/env/axi_lite_scoreboard.sv(113) @ 4385000: uvm_test_top.env.scb [AXI_LITE_SCB] Read match: addr=0x00000004 data=0xffffffec
UVM_INFO ../tb/agent/axi_lite_driver.sv(133) @ 4395000: uvm_test_top.env.agt.driver [AXI_LITE_DRV] READ addr=0x00000004 rdata=0xffffffec resp=0x0 ar_delay=1 r_ready_delay=3
UVM_INFO ../tb/agent/axi_lite_monitor.sv(119) @ 4475000: uvm_test_top.env.agt.monitor [AXI_LITE_MON] WRITE addr=0x00000004 data=0xaaaaa88a strb=0x2 resp=0x0 order=AXI_LITE_AW_BEFORE_W b_wait=3
UVM_INFO ../tb/env/axi_lite_scoreboard.sv(71) @ 4475000: uvm_test_top.env.scb [AXI_LITE_SCB] Model write: addr=0x00000004 data=0xaaaaa88a strb=0x2
UVM_INFO ../tb/agent/axi_lite_driver.sv(94) @ 4485000: uvm_test_top.env.agt.driver [AXI_LITE_DRV] WRITE addr=0x00000004 data=0xaaaaa88a strb=0x2 resp=0x0 aw_delay=1 w_delay=2 b_ready_delay=3
UVM_INFO ../tb/agent/axi_lite_monitor.sv(167) @ 4585000: uvm_test_top.env.agt.monitor [AXI_LITE_MON] READ addr=0x00000004 rdata=0xffffa8ec resp=0x0 r_wait=5
UVM_INFO ../tb/env/axi_lite_scoreboard.sv(113) @ 4585000: uvm_test_top.env.scb [AXI_LITE_SCB] Read match: addr=0x00000004 data=0xffffa8ec
UVM_INFO ../tb/agent/axi_lite_driver.sv(133) @ 4595000: uvm_test_top.env.agt.driver [AXI_LITE_DRV] READ addr=0x00000004 rdata=0xffffa8ec resp=0x0 ar_delay=2 r_ready_delay=4
UVM_INFO ../tb/agent/axi_lite_monitor.sv(119) @ 4695000: uvm_test_top.env.agt.monitor [AXI_LITE_MON] WRITE addr=0x00000004 data=0x55555764 strb=0x3 resp=0x0 order=AXI_LITE_AW_BEFORE_W b_wait=4
UVM_INFO ../tb/env/axi_lite_scoreboard.sv(71) @ 4695000: uvm_test_top.env.scb [AXI_LITE_SCB] Model write: addr=0x00000004 data=0x55555764 strb=0x3
UVM_INFO ../tb/agent/axi_lite_driver.sv(94) @ 4705000: uvm_test_top.env.agt.driver [AXI_LITE_DRV] WRITE addr=0x00000004 data=0x55555764 strb=0x3 resp=0x0 aw_delay=2 w_delay=3 b_ready_delay=4
UVM_INFO ../tb/agent/axi_lite_monitor.sv(167) @ 4775000: uvm_test_top.env.agt.monitor [AXI_LITE_MON] READ addr=0x00000004 rdata=0xffff5764 resp=0x0 r_wait=1
UVM_INFO ../tb/env/axi_lite_scoreboard.sv(113) @ 4775000: uvm_test_top.env.scb [AXI_LITE_SCB] Read match: addr=0x00000004 data=0xffff5764
UVM_INFO ../tb/agent/axi_lite_driver.sv(133) @ 4785000: uvm_test_top.env.agt.driver [AXI_LITE_DRV] READ addr=0x00000004 rdata=0xffff5764 resp=0x0 ar_delay=3 r_ready_delay=0
UVM_INFO ../tb/agent/axi_lite_monitor.sv(119) @ 4845000: uvm_test_top.env.agt.monitor [AXI_LITE_MON] WRITE addr=0x00000004 data=0x1234543e strb=0x4 resp=0x0 order=AXI_LITE_W_BEFORE_AW b_wait=0
UVM_INFO ../tb/env/axi_lite_scoreboard.sv(71) @ 4845000: uvm_test_top.env.scb [AXI_LITE_SCB] Model write: addr=0x00000004 data=0x1234543e strb=0x4
UVM_INFO ../tb/agent/axi_lite_driver.sv(94) @ 4855000: uvm_test_top.env.agt.driver [AXI_LITE_DRV] WRITE addr=0x00000004 data=0x1234543e strb=0x4 resp=0x0 aw_delay=3 w_delay=0 b_ready_delay=0
UVM_INFO ../tb/agent/axi_lite_monitor.sv(167) @ 4905000: uvm_test_top.env.agt.monitor [AXI_LITE_MON] READ addr=0x00000004 rdata=0xff345764 resp=0x0 r_wait=2
UVM_INFO ../tb/env/axi_lite_scoreboard.sv(113) @ 4905000: uvm_test_top.env.scb [AXI_LITE_SCB] Read match: addr=0x00000004 data=0xff345764
UVM_INFO ../tb/agent/axi_lite_driver.sv(133) @ 4915000: uvm_test_top.env.agt.driver [AXI_LITE_DRV] READ addr=0x00000004 rdata=0xff345764 resp=0x0 ar_delay=0 r_ready_delay=1
UVM_INFO ../tb/agent/axi_lite_monitor.sv(119) @ 4965000: uvm_test_top.env.agt.monitor [AXI_LITE_MON] WRITE addr=0x00000004 data=0xcafebcb8 strb=0x5 resp=0x0 order=AXI_LITE_AW_BEFORE_W b_wait=1
UVM_INFO ../tb/env/axi_lite_scoreboard.sv(71) @ 4965000: uvm_test_top.env.scb [AXI_LITE_SCB] Model write: addr=0x00000004 data=0xcafebcb8 strb=0x5
UVM_INFO ../tb/agent/axi_lite_driver.sv(94) @ 4975000: uvm_test_top.env.agt.driver [AXI_LITE_DRV] WRITE addr=0x00000004 data=0xcafebcb8 strb=0x5 resp=0x0 aw_delay=0 w_delay=1 b_ready_delay=1
UVM_INFO ../tb/agent/axi_lite_monitor.sv(167) @ 5045000: uvm_test_top.env.agt.monitor [AXI_LITE_MON] READ addr=0x00000004 rdata=0xfffe57b8 resp=0x0 r_wait=3
UVM_INFO ../tb/env/axi_lite_scoreboard.sv(113) @ 5045000: uvm_test_top.env.scb [AXI_LITE_SCB] Read match: addr=0x00000004 data=0xfffe57b8
UVM_INFO ../tb/agent/axi_lite_driver.sv(133) @ 5055000: uvm_test_top.env.agt.driver [AXI_LITE_DRV] READ addr=0x00000004 rdata=0xfffe57b8 resp=0x0 ar_delay=1 r_ready_delay=2
UVM_INFO ../tb/agent/axi_lite_monitor.sv(119) @ 5125000: uvm_test_top.env.agt.monitor [AXI_LITE_MON] WRITE addr=0x00000004 data=0x00000264 strb=0x6 resp=0x0 order=AXI_LITE_AW_BEFORE_W b_wait=2
UVM_INFO ../tb/env/axi_lite_scoreboard.sv(71) @ 5125000: uvm_test_top.env.scb [AXI_LITE_SCB] Model write: addr=0x00000004 data=0x00000264 strb=0x6
UVM_INFO ../tb/agent/axi_lite_driver.sv(94) @ 5135000: uvm_test_top.env.agt.driver [AXI_LITE_DRV] WRITE addr=0x00000004 data=0x00000264 strb=0x6 resp=0x0 aw_delay=1 w_delay=2 b_ready_delay=2
UVM_INFO ../tb/agent/axi_lite_monitor.sv(167) @ 5225000: uvm_test_top.env.agt.monitor [AXI_LITE_MON] READ addr=0x00000004 rdata=0xff0002b8 resp=0x0 r_wait=4
UVM_INFO ../tb/env/axi_lite_scoreboard.sv(113) @ 5225000: uvm_test_top.env.scb [AXI_LITE_SCB] Read match: addr=0x00000004 data=0xff0002b8
UVM_INFO ../tb/agent/axi_lite_driver.sv(133) @ 5235000: uvm_test_top.env.agt.driver [AXI_LITE_DRV] READ addr=0x00000004 rdata=0xff0002b8 resp=0x0 ar_delay=2 r_ready_delay=3
UVM_INFO ../tb/agent/axi_lite_monitor.sv(119) @ 5325000: uvm_test_top.env.agt.monitor [AXI_LITE_MON] WRITE addr=0x00000004 data=0xfffffd8a strb=0x7 resp=0x0 order=AXI_LITE_AW_BEFORE_W b_wait=3
UVM_INFO ../tb/env/axi_lite_scoreboard.sv(71) @ 5325000: uvm_test_top.env.scb [AXI_LITE_SCB] Model write: addr=0x00000004 data=0xfffffd8a strb=0x7
UVM_INFO ../tb/agent/axi_lite_driver.sv(94) @ 5335000: uvm_test_top.env.agt.driver [AXI_LITE_DRV] WRITE addr=0x00000004 data=0xfffffd8a strb=0x7 resp=0x0 aw_delay=2 w_delay=3 b_ready_delay=3
UVM_INFO ../tb/agent/axi_lite_monitor.sv(167) @ 5445000: uvm_test_top.env.agt.monitor [AXI_LITE_MON] READ addr=0x00000004 rdata=0xfffffd8a resp=0x0 r_wait=5
UVM_INFO ../tb/env/axi_lite_scoreboard.sv(113) @ 5445000: uvm_test_top.env.scb [AXI_LITE_SCB] Read match: addr=0x00000004 data=0xfffffd8a
UVM_INFO ../tb/agent/axi_lite_driver.sv(133) @ 5455000: uvm_test_top.env.agt.driver [AXI_LITE_DRV] READ addr=0x00000004 rdata=0xfffffd8a resp=0x0 ar_delay=3 r_ready_delay=4
UVM_INFO ../tb/agent/axi_lite_monitor.sv(119) @ 5555000: uvm_test_top.env.agt.monitor [AXI_LITE_MON] WRITE addr=0x00000004 data=0xaaaaa820 strb=0x8 resp=0x0 order=AXI_LITE_W_BEFORE_AW b_wait=4
UVM_INFO ../tb/env/axi_lite_scoreboard.sv(71) @ 5555000: uvm_test_top.env.scb [AXI_LITE_SCB] Model write: addr=0x00000004 data=0xaaaaa820 strb=0x8
UVM_INFO ../tb/agent/axi_lite_driver.sv(94) @ 5565000: uvm_test_top.env.agt.driver [AXI_LITE_DRV] WRITE addr=0x00000004 data=0xaaaaa820 strb=0x8 resp=0x0 aw_delay=3 w_delay=0 b_ready_delay=4
UVM_INFO ../tb/agent/axi_lite_monitor.sv(167) @ 5605000: uvm_test_top.env.agt.monitor [AXI_LITE_MON] READ addr=0x00000004 rdata=0xaafffd8a resp=0x0 r_wait=1
UVM_INFO ../tb/env/axi_lite_scoreboard.sv(113) @ 5605000: uvm_test_top.env.scb [AXI_LITE_SCB] Read match: addr=0x00000004 data=0xaafffd8a
UVM_INFO ../tb/agent/axi_lite_driver.sv(133) @ 5615000: uvm_test_top.env.agt.driver [AXI_LITE_DRV] READ addr=0x00000004 rdata=0xaafffd8a resp=0x0 ar_delay=0 r_ready_delay=0
UVM_INFO ../tb/agent/axi_lite_monitor.sv(119) @ 5655000: uvm_test_top.env.agt.monitor [AXI_LITE_MON] WRITE addr=0x00000004 data=0x555557ce strb=0x9 resp=0x0 order=AXI_LITE_AW_BEFORE_W b_wait=0
UVM_INFO ../tb/env/axi_lite_scoreboard.sv(71) @ 5655000: uvm_test_top.env.scb [AXI_LITE_SCB] Model write: addr=0x00000004 data=0x555557ce strb=0x9
UVM_INFO ../tb/agent/axi_lite_driver.sv(94) @ 5665000: uvm_test_top.env.agt.driver [AXI_LITE_DRV] WRITE addr=0x00000004 data=0x555557ce strb=0x9 resp=0x0 aw_delay=0 w_delay=1 b_ready_delay=0
UVM_INFO ../tb/agent/axi_lite_monitor.sv(167) @ 5725000: uvm_test_top.env.agt.monitor [AXI_LITE_MON] READ addr=0x00000004 rdata=0x55fffdce resp=0x0 r_wait=2
UVM_INFO ../tb/env/axi_lite_scoreboard.sv(113) @ 5725000: uvm_test_top.env.scb [AXI_LITE_SCB] Read match: addr=0x00000004 data=0x55fffdce
UVM_INFO ../tb/agent/axi_lite_driver.sv(133) @ 5735000: uvm_test_top.env.agt.driver [AXI_LITE_DRV] READ addr=0x00000004 rdata=0x55fffdce resp=0x0 ar_delay=1 r_ready_delay=1
UVM_INFO ../tb/agent/axi_lite_monitor.sv(119) @ 5795000: uvm_test_top.env.agt.monitor [AXI_LITE_MON] WRITE addr=0x00000004 data=0x123454d0 strb=0xa resp=0x0 order=AXI_LITE_AW_BEFORE_W b_wait=1
UVM_INFO ../tb/env/axi_lite_scoreboard.sv(71) @ 5795000: uvm_test_top.env.scb [AXI_LITE_SCB] Model write: addr=0x00000004 data=0x123454d0 strb=0xa
UVM_INFO ../tb/agent/axi_lite_driver.sv(94) @ 5805000: uvm_test_top.env.agt.driver [AXI_LITE_DRV] WRITE addr=0x00000004 data=0x123454d0 strb=0xa resp=0x0 aw_delay=1 w_delay=2 b_ready_delay=1
UVM_INFO ../tb/agent/axi_lite_monitor.sv(167) @ 5885000: uvm_test_top.env.agt.monitor [AXI_LITE_MON] READ addr=0x00000004 rdata=0x12ff54ce resp=0x0 r_wait=3
UVM_INFO ../tb/env/axi_lite_scoreboard.sv(113) @ 5885000: uvm_test_top.env.scb [AXI_LITE_SCB] Read match: addr=0x00000004 data=0x12ff54ce
UVM_INFO ../tb/agent/axi_lite_driver.sv(133) @ 5895000: uvm_test_top.env.agt.driver [AXI_LITE_DRV] READ addr=0x00000004 rdata=0x12ff54ce resp=0x0 ar_delay=2 r_ready_delay=2
UVM_INFO ../tb/agent/axi_lite_monitor.sv(119) @ 5975000: uvm_test_top.env.agt.monitor [AXI_LITE_MON] WRITE addr=0x00000004 data=0xcafebc56 strb=0xb resp=0x0 order=AXI_LITE_AW_BEFORE_W b_wait=2
UVM_INFO ../tb/env/axi_lite_scoreboard.sv(71) @ 5975000: uvm_test_top.env.scb [AXI_LITE_SCB] Model write: addr=0x00000004 data=0xcafebc56 strb=0xb
UVM_INFO ../tb/agent/axi_lite_driver.sv(94) @ 5985000: uvm_test_top.env.agt.driver [AXI_LITE_DRV] WRITE addr=0x00000004 data=0xcafebc56 strb=0xb resp=0x0 aw_delay=2 w_delay=3 b_ready_delay=2
UVM_INFO ../tb/agent/axi_lite_monitor.sv(167) @ 6085000: uvm_test_top.env.agt.monitor [AXI_LITE_MON] READ addr=0x00000004 rdata=0xcaffbc56 resp=0x0 r_wait=4
UVM_INFO ../tb/env/axi_lite_scoreboard.sv(113) @ 6085000: uvm_test_top.env.scb [AXI_LITE_SCB] Read match: addr=0x00000004 data=0xcaffbc56
UVM_INFO ../tb/agent/axi_lite_driver.sv(133) @ 6095000: uvm_test_top.env.agt.driver [AXI_LITE_DRV] READ addr=0x00000004 rdata=0xcaffbc56 resp=0x0 ar_delay=3 r_ready_delay=3
UVM_INFO ../tb/agent/axi_lite_monitor.sv(119) @ 6185000: uvm_test_top.env.agt.monitor [AXI_LITE_MON] WRITE addr=0x00000004 data=0x000002ce strb=0xc resp=0x0 order=AXI_LITE_W_BEFORE_AW b_wait=3
UVM_INFO ../tb/env/axi_lite_scoreboard.sv(71) @ 6185000: uvm_test_top.env.scb [AXI_LITE_SCB] Model write: addr=0x00000004 data=0x000002ce strb=0xc
UVM_INFO ../tb/agent/axi_lite_driver.sv(94) @ 6195000: uvm_test_top.env.agt.driver [AXI_LITE_DRV] WRITE addr=0x00000004 data=0x000002ce strb=0xc resp=0x0 aw_delay=3 w_delay=0 b_ready_delay=3
UVM_INFO ../tb/agent/axi_lite_monitor.sv(167) @ 6275000: uvm_test_top.env.agt.monitor [AXI_LITE_MON] READ addr=0x00000004 rdata=0x0000bc56 resp=0x0 r_wait=5
UVM_INFO ../tb/env/axi_lite_scoreboard.sv(113) @ 6275000: uvm_test_top.env.scb [AXI_LITE_SCB] Read match: addr=0x00000004 data=0x0000bc56
UVM_INFO ../tb/agent/axi_lite_driver.sv(133) @ 6285000: uvm_test_top.env.agt.driver [AXI_LITE_DRV] READ addr=0x00000004 rdata=0x0000bc56 resp=0x0 ar_delay=0 r_ready_delay=4
UVM_INFO ../tb/agent/axi_lite_monitor.sv(119) @ 6365000: uvm_test_top.env.agt.monitor [AXI_LITE_MON] WRITE addr=0x00000004 data=0xfffffd20 strb=0xd resp=0x0 order=AXI_LITE_AW_BEFORE_W b_wait=4
UVM_INFO ../tb/env/axi_lite_scoreboard.sv(71) @ 6365000: uvm_test_top.env.scb [AXI_LITE_SCB] Model write: addr=0x00000004 data=0xfffffd20 strb=0xd
UVM_INFO ../tb/agent/axi_lite_driver.sv(94) @ 6375000: uvm_test_top.env.agt.driver [AXI_LITE_DRV] WRITE addr=0x00000004 data=0xfffffd20 strb=0xd resp=0x0 aw_delay=0 w_delay=1 b_ready_delay=4
UVM_INFO ../tb/agent/axi_lite_monitor.sv(167) @ 6425000: uvm_test_top.env.agt.monitor [AXI_LITE_MON] READ addr=0x00000004 rdata=0xffffbc20 resp=0x0 r_wait=1
UVM_INFO ../tb/env/axi_lite_scoreboard.sv(113) @ 6425000: uvm_test_top.env.scb [AXI_LITE_SCB] Read match: addr=0x00000004 data=0xffffbc20
UVM_INFO ../tb/agent/axi_lite_driver.sv(133) @ 6435000: uvm_test_top.env.agt.driver [AXI_LITE_DRV] READ addr=0x00000004 rdata=0xffffbc20 resp=0x0 ar_delay=1 r_ready_delay=0
UVM_INFO ../tb/agent/axi_lite_monitor.sv(119) @ 6485000: uvm_test_top.env.agt.monitor [AXI_LITE_MON] WRITE addr=0x00000004 data=0xaaaaa846 strb=0xe resp=0x0 order=AXI_LITE_AW_BEFORE_W b_wait=0
UVM_INFO ../tb/env/axi_lite_scoreboard.sv(71) @ 6485000: uvm_test_top.env.scb [AXI_LITE_SCB] Model write: addr=0x00000004 data=0xaaaaa846 strb=0xe
UVM_INFO ../tb/agent/axi_lite_driver.sv(94) @ 6495000: uvm_test_top.env.agt.driver [AXI_LITE_DRV] WRITE addr=0x00000004 data=0xaaaaa846 strb=0xe resp=0x0 aw_delay=1 w_delay=2 b_ready_delay=0
UVM_INFO ../tb/agent/axi_lite_monitor.sv(167) @ 6565000: uvm_test_top.env.agt.monitor [AXI_LITE_MON] READ addr=0x00000004 rdata=0xaaaaa820 resp=0x0 r_wait=2
UVM_INFO ../tb/env/axi_lite_scoreboard.sv(113) @ 6565000: uvm_test_top.env.scb [AXI_LITE_SCB] Read match: addr=0x00000004 data=0xaaaaa820
UVM_INFO ../tb/agent/axi_lite_driver.sv(133) @ 6575000: uvm_test_top.env.agt.driver [AXI_LITE_DRV] READ addr=0x00000004 rdata=0xaaaaa820 resp=0x0 ar_delay=2 r_ready_delay=1
UVM_INFO ../tb/agent/axi_lite_monitor.sv(119) @ 6645000: uvm_test_top.env.agt.monitor [AXI_LITE_MON] WRITE addr=0x00000004 data=0x555557a8 strb=0xf resp=0x0 order=AXI_LITE_AW_BEFORE_W b_wait=1
UVM_INFO ../tb/env/axi_lite_scoreboard.sv(71) @ 6645000: uvm_test_top.env.scb [AXI_LITE_SCB] Model write: addr=0x00000004 data=0x555557a8 strb=0xf
UVM_INFO ../tb/agent/axi_lite_driver.sv(94) @ 6655000: uvm_test_top.env.agt.driver [AXI_LITE_DRV] WRITE addr=0x00000004 data=0x555557a8 strb=0xf resp=0x0 aw_delay=2 w_delay=3 b_ready_delay=1
UVM_INFO ../tb/agent/axi_lite_monitor.sv(167) @ 6745000: uvm_test_top.env.agt.monitor [AXI_LITE_MON] READ addr=0x00000004 rdata=0x555557a8 resp=0x0 r_wait=3
UVM_INFO ../tb/env/axi_lite_scoreboard.sv(113) @ 6745000: uvm_test_top.env.scb [AXI_LITE_SCB] Read match: addr=0x00000004 data=0x555557a8
UVM_INFO ../tb/agent/axi_lite_driver.sv(133) @ 6755000: uvm_test_top.env.agt.driver [AXI_LITE_DRV] READ addr=0x00000004 rdata=0x555557a8 resp=0x0 ar_delay=3 r_ready_delay=2
UVM_INFO ../tb/agent/axi_lite_monitor.sv(119) @ 6825000: uvm_test_top.env.agt.monitor [AXI_LITE_MON] WRITE addr=0x00000008 data=0xaaaaa9b8 strb=0x1 resp=0x0 order=AXI_LITE_AW_BEFORE_W b_wait=2
UVM_INFO ../tb/env/axi_lite_scoreboard.sv(71) @ 6825000: uvm_test_top.env.scb [AXI_LITE_SCB] Model write: addr=0x00000008 data=0xaaaaa9b8 strb=0x1
UVM_INFO ../tb/agent/axi_lite_driver.sv(94) @ 6835000: uvm_test_top.env.agt.driver [AXI_LITE_DRV] WRITE addr=0x00000008 data=0xaaaaa9b8 strb=0x1 resp=0x0 aw_delay=0 w_delay=2 b_ready_delay=2
UVM_INFO ../tb/agent/axi_lite_monitor.sv(167) @ 6915000: uvm_test_top.env.agt.monitor [AXI_LITE_MON] READ addr=0x00000008 rdata=0xaaaaaab8 resp=0x0 r_wait=4
UVM_INFO ../tb/env/axi_lite_scoreboard.sv(113) @ 6915000: uvm_test_top.env.scb [AXI_LITE_SCB] Read match: addr=0x00000008 data=0xaaaaaab8
UVM_INFO ../tb/agent/axi_lite_driver.sv(133) @ 6925000: uvm_test_top.env.agt.driver [AXI_LITE_DRV] READ addr=0x00000008 rdata=0xaaaaaab8 resp=0x0 ar_delay=1 r_ready_delay=3
UVM_INFO ../tb/agent/axi_lite_monitor.sv(119) @ 7015000: uvm_test_top.env.agt.monitor [AXI_LITE_MON] WRITE addr=0x00000008 data=0x55555674 strb=0x2 resp=0x0 order=AXI_LITE_AW_BEFORE_W b_wait=3
UVM_INFO ../tb/env/axi_lite_scoreboard.sv(71) @ 7015000: uvm_test_top.env.scb [AXI_LITE_SCB] Model write: addr=0x00000008 data=0x55555674 strb=0x2
UVM_INFO ../tb/agent/axi_lite_driver.sv(94) @ 7025000: uvm_test_top.env.agt.driver [AXI_LITE_DRV] WRITE addr=0x00000008 data=0x55555674 strb=0x2 resp=0x0 aw_delay=1 w_delay=3 b_ready_delay=3
UVM_INFO ../tb/agent/axi_lite_monitor.sv(167) @ 7125000: uvm_test_top.env.agt.monitor [AXI_LITE_MON] READ addr=0x00000008 rdata=0xaaaa56b8 resp=0x0 r_wait=5
UVM_INFO ../tb/env/axi_lite_scoreboard.sv(113) @ 7125000: uvm_test_top.env.scb [AXI_LITE_SCB] Read match: addr=0x00000008 data=0xaaaa56b8
UVM_INFO ../tb/agent/axi_lite_driver.sv(133) @ 7135000: uvm_test_top.env.agt.driver [AXI_LITE_DRV] READ addr=0x00000008 rdata=0xaaaa56b8 resp=0x0 ar_delay=2 r_ready_delay=4
UVM_INFO ../tb/agent/axi_lite_monitor.sv(119) @ 7225000: uvm_test_top.env.agt.monitor [AXI_LITE_MON] WRITE addr=0x00000008 data=0x12345548 strb=0x3 resp=0x0 order=AXI_LITE_W_BEFORE_AW b_wait=4
UVM_INFO ../tb/env/axi_lite_scoreboard.sv(71) @ 7225000: uvm_test_top.env.scb [AXI_LITE_SCB] Model write: addr=0x00000008 data=0x12345548 strb=0x3
UVM_INFO ../tb/agent/axi_lite_driver.sv(94) @ 7235000: uvm_test_top.env.agt.driver [AXI_LITE_DRV] WRITE addr=0x00000008 data=0x12345548 strb=0x3 resp=0x0 aw_delay=2 w_delay=0 b_ready_delay=4
UVM_INFO ../tb/agent/axi_lite_monitor.sv(167) @ 7305000: uvm_test_top.env.agt.monitor [AXI_LITE_MON] READ addr=0x00000008 rdata=0xaaaa5548 resp=0x0 r_wait=1
UVM_INFO ../tb/env/axi_lite_scoreboard.sv(113) @ 7305000: uvm_test_top.env.scb [AXI_LITE_SCB] Read match: addr=0x00000008 data=0xaaaa5548
UVM_INFO ../tb/agent/axi_lite_driver.sv(133) @ 7315000: uvm_test_top.env.agt.driver [AXI_LITE_DRV] READ addr=0x00000008 rdata=0xaaaa5548 resp=0x0 ar_delay=3 r_ready_delay=0
UVM_INFO ../tb/agent/axi_lite_monitor.sv(119) @ 7375000: uvm_test_top.env.agt.monitor [AXI_LITE_MON] WRITE addr=0x00000008 data=0xcafebda8 strb=0x4 resp=0x0 order=AXI_LITE_W_BEFORE_AW b_wait=0
UVM_INFO ../tb/env/axi_lite_scoreboard.sv(71) @ 7375000: uvm_test_top.env.scb [AXI_LITE_SCB] Model write: addr=0x00000008 data=0xcafebda8 strb=0x4
UVM_INFO ../tb/agent/axi_lite_driver.sv(94) @ 7385000: uvm_test_top.env.agt.driver [AXI_LITE_DRV] WRITE addr=0x00000008 data=0xcafebda8 strb=0x4 resp=0x0 aw_delay=3 w_delay=1 b_ready_delay=0
UVM_INFO ../tb/agent/axi_lite_monitor.sv(167) @ 7435000: uvm_test_top.env.agt.monitor [AXI_LITE_MON] READ addr=0x00000008 rdata=0xaafe5548 resp=0x0 r_wait=2
UVM_INFO ../tb/env/axi_lite_scoreboard.sv(113) @ 7435000: uvm_test_top.env.scb [AXI_LITE_SCB] Read match: addr=0x00000008 data=0xaafe5548
UVM_INFO ../tb/agent/axi_lite_driver.sv(133) @ 7445000: uvm_test_top.env.agt.driver [AXI_LITE_DRV] READ addr=0x00000008 rdata=0xaafe5548 resp=0x0 ar_delay=0 r_ready_delay=1
UVM_INFO ../tb/agent/axi_lite_monitor.sv(119) @ 7505000: uvm_test_top.env.agt.monitor [AXI_LITE_MON] WRITE addr=0x00000008 data=0x00000356 strb=0x5 resp=0x0 order=AXI_LITE_AW_BEFORE_W b_wait=1
UVM_INFO ../tb/env/axi_lite_scoreboard.sv(71) @ 7505000: uvm_test_top.env.scb [AXI_LITE_SCB] Model write: addr=0x00000008 data=0x00000356 strb=0x5
UVM_INFO ../tb/agent/axi_lite_driver.sv(94) @ 7515000: uvm_test_top.env.agt.driver [AXI_LITE_DRV] WRITE addr=0x00000008 data=0x00000356 strb=0x5 resp=0x0 aw_delay=0 w_delay=2 b_ready_delay=1
UVM_INFO ../tb/agent/axi_lite_monitor.sv(167) @ 7585000: uvm_test_top.env.agt.monitor [AXI_LITE_MON] READ addr=0x00000008 rdata=0xaa005556 resp=0x0 r_wait=3
UVM_INFO ../tb/env/axi_lite_scoreboard.sv(113) @ 7585000: uvm_test_top.env.scb [AXI_LITE_SCB] Read match: addr=0x00000008 data=0xaa005556
UVM_INFO ../tb/agent/axi_lite_driver.sv(133) @ 7595000: uvm_test_top.env.agt.driver [AXI_LITE_DRV] READ addr=0x00000008 rdata=0xaa005556 resp=0x0 ar_delay=1 r_ready_delay=2
UVM_INFO ../tb/agent/axi_lite_monitor.sv(119) @ 7675000: uvm_test_top.env.agt.monitor [AXI_LITE_MON] WRITE addr=0x00000008 data=0xfffffc9a strb=0x6 resp=0x0 order=AXI_LITE_AW_BEFORE_W b_wait=2
UVM_INFO ../tb/env/axi_lite_scoreboard.sv(71) @ 7675000: uvm_test_top.env.scb [AXI_LITE_SCB] Model write: addr=0x00000008 data=0xfffffc9a strb=0x6
UVM_INFO ../tb/agent/axi_lite_driver.sv(94) @ 7685000: uvm_test_top.env.agt.driver [AXI_LITE_DRV] WRITE addr=0x00000008 data=0xfffffc9a strb=0x6 resp=0x0 aw_delay=1 w_delay=3 b_ready_delay=2
UVM_INFO ../tb/agent/axi_lite_monitor.sv(167) @ 7775000: uvm_test_top.env.agt.monitor [AXI_LITE_MON] READ addr=0x00000008 rdata=0xaafffc56 resp=0x0 r_wait=4
UVM_INFO ../tb/env/axi_lite_scoreboard.sv(113) @ 7775000: uvm_test_top.env.scb [AXI_LITE_SCB] Read match: addr=0x00000008 data=0xaafffc56
UVM_INFO ../tb/agent/axi_lite_driver.sv(133) @ 7785000: uvm_test_top.env.agt.driver [AXI_LITE_DRV] READ addr=0x00000008 rdata=0xaafffc56 resp=0x0 ar_delay=2 r_ready_delay=3
UVM_INFO ../tb/agent/axi_lite_monitor.sv(119) @ 7865000: uvm_test_top.env.agt.monitor [AXI_LITE_MON] WRITE addr=0x00000008 data=0xaaaaa9de strb=0x7 resp=0x0 order=AXI_LITE_W_BEFORE_AW b_wait=3
UVM_INFO ../tb/env/axi_lite_scoreboard.sv(71) @ 7865000: uvm_test_top.env.scb [AXI_LITE_SCB] Model write: addr=0x00000008 data=0xaaaaa9de strb=0x7
UVM_INFO ../tb/agent/axi_lite_driver.sv(94) @ 7875000: uvm_test_top.env.agt.driver [AXI_LITE_DRV] WRITE addr=0x00000008 data=0xaaaaa9de strb=0x7 resp=0x0 aw_delay=2 w_delay=0 b_ready_delay=3
UVM_INFO ../tb/agent/axi_lite_monitor.sv(167) @ 7985000: uvm_test_top.env.agt.monitor [AXI_LITE_MON] READ addr=0x00000008 rdata=0xaaaaa9de resp=0x0 r_wait=5
UVM_INFO ../tb/env/axi_lite_scoreboard.sv(113) @ 7985000: uvm_test_top.env.scb [AXI_LITE_SCB] Read match: addr=0x00000008 data=0xaaaaa9de
UVM_INFO ../tb/agent/axi_lite_driver.sv(133) @ 7995000: uvm_test_top.env.agt.driver [AXI_LITE_DRV] READ addr=0x00000008 rdata=0xaaaaa9de resp=0x0 ar_delay=3 r_ready_delay=4
UVM_INFO ../tb/agent/axi_lite_monitor.sv(119) @ 8095000: uvm_test_top.env.agt.monitor [AXI_LITE_MON] WRITE addr=0x00000008 data=0x555556de strb=0x8 resp=0x0 order=AXI_LITE_W_BEFORE_AW b_wait=4
UVM_INFO ../tb/env/axi_lite_scoreboard.sv(71) @ 8095000: uvm_test_top.env.scb [AXI_LITE_SCB] Model write: addr=0x00000008 data=0x555556de strb=0x8
UVM_INFO ../tb/agent/axi_lite_driver.sv(94) @ 8105000: uvm_test_top.env.agt.driver [AXI_LITE_DRV] WRITE addr=0x00000008 data=0x555556de strb=0x8 resp=0x0 aw_delay=3 w_delay=1 b_ready_delay=4
UVM_INFO ../tb/agent/axi_lite_monitor.sv(167) @ 8145000: uvm_test_top.env.agt.monitor [AXI_LITE_MON] READ addr=0x00000008 rdata=0x55aaa9de resp=0x0 r_wait=1
UVM_INFO ../tb/env/axi_lite_scoreboard.sv(113) @ 8145000: uvm_test_top.env.scb [AXI_LITE_SCB] Read match: addr=0x00000008 data=0x55aaa9de
UVM_INFO ../tb/agent/axi_lite_driver.sv(133) @ 8155000: uvm_test_top.env.agt.driver [AXI_LITE_DRV] READ addr=0x00000008 rdata=0x55aaa9de resp=0x0 ar_delay=0 r_ready_delay=0
UVM_INFO ../tb/agent/axi_lite_monitor.sv(119) @ 8205000: uvm_test_top.env.agt.monitor [AXI_LITE_MON] WRITE addr=0x00000008 data=0x123455e2 strb=0x9 resp=0x0 order=AXI_LITE_AW_BEFORE_W b_wait=0
UVM_INFO ../tb/env/axi_lite_scoreboard.sv(71) @ 8205000: uvm_test_top.env.scb [AXI_LITE_SCB] Model write: addr=0x00000008 data=0x123455e2 strb=0x9
UVM_INFO ../tb/agent/axi_lite_driver.sv(94) @ 8215000: uvm_test_top.env.agt.driver [AXI_LITE_DRV] WRITE addr=0x00000008 data=0x123455e2 strb=0x9 resp=0x0 aw_delay=0 w_delay=2 b_ready_delay=0
UVM_INFO ../tb/agent/axi_lite_monitor.sv(167) @ 8275000: uvm_test_top.env.agt.monitor [AXI_LITE_MON] READ addr=0x00000008 rdata=0x12aaa9e2 resp=0x0 r_wait=2
UVM_INFO ../tb/env/axi_lite_scoreboard.sv(113) @ 8275000: uvm_test_top.env.scb [AXI_LITE_SCB] Read match: addr=0x00000008 data=0x12aaa9e2
UVM_INFO ../tb/agent/axi_lite_driver.sv(133) @ 8285000: uvm_test_top.env.agt.driver [AXI_LITE_DRV] READ addr=0x00000008 rdata=0x12aaa9e2 resp=0x0 ar_delay=1 r_ready_delay=1
UVM_INFO ../tb/agent/axi_lite_monitor.sv(119) @ 8355000: uvm_test_top.env.agt.monitor [AXI_LITE_MON] WRITE addr=0x00000008 data=0xcafebd46 strb=0xa resp=0x0 order=AXI_LITE_AW_BEFORE_W b_wait=1
UVM_INFO ../tb/env/axi_lite_scoreboard.sv(71) @ 8355000: uvm_test_top.env.scb [AXI_LITE_SCB] Model write: addr=0x00000008 data=0xcafebd46 strb=0xa
UVM_INFO ../tb/agent/axi_lite_driver.sv(94) @ 8365000: uvm_test_top.env.agt.driver [AXI_LITE_DRV] WRITE addr=0x00000008 data=0xcafebd46 strb=0xa resp=0x0 aw_delay=1 w_delay=3 b_ready_delay=1
UVM_INFO ../tb/agent/axi_lite_monitor.sv(167) @ 8445000: uvm_test_top.env.agt.monitor [AXI_LITE_MON] READ addr=0x00000008 rdata=0xcaaabde2 resp=0x0 r_wait=3
UVM_INFO ../tb/env/axi_lite_scoreboard.sv(113) @ 8445000: uvm_test_top.env.scb [AXI_LITE_SCB] Read match: addr=0x00000008 data=0xcaaabde2
UVM_INFO ../tb/agent/axi_lite_driver.sv(133) @ 8455000: uvm_test_top.env.agt.driver [AXI_LITE_DRV] READ addr=0x00000008 rdata=0xcaaabde2 resp=0x0 ar_delay=2 r_ready_delay=2
UVM_INFO ../tb/agent/axi_lite_monitor.sv(119) @ 8525000: uvm_test_top.env.agt.monitor [AXI_LITE_MON] WRITE addr=0x00000008 data=0x000003b8 strb=0xb resp=0x0 order=AXI_LITE_W_BEFORE_AW b_wait=2
UVM_INFO ../tb/env/axi_lite_scoreboard.sv(71) @ 8525000: uvm_test_top.env.scb [AXI_LITE_SCB] Model write: addr=0x00000008 data=0x000003b8 strb=0xb
UVM_INFO ../tb/agent/axi_lite_driver.sv(94) @ 8535000: uvm_test_top.env.agt.driver [AXI_LITE_DRV] WRITE addr=0x00000008 data=0x000003b8 strb=0xb resp=0x0 aw_delay=2 w_delay=0 b_ready_delay=2
UVM_INFO ../tb/agent/axi_lite_monitor.sv(167) @ 8635000: uvm_test_top.env.agt.monitor [AXI_LITE_MON] READ addr=0x00000008 rdata=0x00aa03b8 resp=0x0 r_wait=4
UVM_INFO ../tb/env/axi_lite_scoreboard.sv(113) @ 8635000: uvm_test_top.env.scb [AXI_LITE_SCB] Read match: addr=0x00000008 data=0x00aa03b8
UVM_INFO ../tb/agent/axi_lite_driver.sv(133) @ 8645000: uvm_test_top.env.agt.driver [AXI_LITE_DRV] READ addr=0x00000008 rdata=0x00aa03b8 resp=0x0 ar_delay=3 r_ready_delay=3
UVM_INFO ../tb/agent/axi_lite_monitor.sv(119) @ 8735000: uvm_test_top.env.agt.monitor [AXI_LITE_MON] WRITE addr=0x00000008 data=0xfffffc30 strb=0xc resp=0x0 order=AXI_LITE_W_BEFORE_AW b_wait=3
UVM_INFO ../tb/env/axi_lite_scoreboard.sv(71) @ 8735000: uvm_test_top.env.scb [AXI_LITE_SCB] Model write: addr=0x00000008 data=0xfffffc30 strb=0xc
UVM_INFO ../tb/agent/axi_lite_driver.sv(94) @ 8745000: uvm_test_top.env.agt.driver [AXI_LITE_DRV] WRITE addr=0x00000008 data=0xfffffc30 strb=0xc resp=0x0 aw_delay=3 w_delay=1 b_ready_delay=3
UVM_INFO ../tb/agent/axi_lite_monitor.sv(167) @ 8825000: uvm_test_top.env.agt.monitor [AXI_LITE_MON] READ addr=0x00000008 rdata=0xffff03b8 resp=0x0 r_wait=5
UVM_INFO ../tb/env/axi_lite_scoreboard.sv(113) @ 8825000: uvm_test_top.env.scb [AXI_LITE_SCB] Read match: addr=0x00000008 data=0xffff03b8
UVM_INFO ../tb/agent/axi_lite_driver.sv(133) @ 8835000: uvm_test_top.env.agt.driver [AXI_LITE_DRV] READ addr=0x00000008 rdata=0xffff03b8 resp=0x0 ar_delay=0 r_ready_delay=4
UVM_INFO ../tb/agent/axi_lite_monitor.sv(119) @ 8925000: uvm_test_top.env.agt.monitor [AXI_LITE_MON] WRITE addr=0x00000008 data=0xaaaaa974 strb=0xd resp=0x0 order=AXI_LITE_AW_BEFORE_W b_wait=4
UVM_INFO ../tb/env/axi_lite_scoreboard.sv(71) @ 8925000: uvm_test_top.env.scb [AXI_LITE_SCB] Model write: addr=0x00000008 data=0xaaaaa974 strb=0xd
UVM_INFO ../tb/agent/axi_lite_driver.sv(94) @ 8935000: uvm_test_top.env.agt.driver [AXI_LITE_DRV] WRITE addr=0x00000008 data=0xaaaaa974 strb=0xd resp=0x0 aw_delay=0 w_delay=2 b_ready_delay=4
UVM_INFO ../tb/agent/axi_lite_monitor.sv(167) @ 8985000: uvm_test_top.env.agt.monitor [AXI_LITE_MON] READ addr=0x00000008 rdata=0xaaaa0374 resp=0x0 r_wait=1
UVM_INFO ../tb/env/axi_lite_scoreboard.sv(113) @ 8985000: uvm_test_top.env.scb [AXI_LITE_SCB] Read match: addr=0x00000008 data=0xaaaa0374
UVM_INFO ../tb/agent/axi_lite_driver.sv(133) @ 8995000: uvm_test_top.env.agt.driver [AXI_LITE_DRV] READ addr=0x00000008 rdata=0xaaaa0374 resp=0x0 ar_delay=1 r_ready_delay=0
UVM_INFO ../tb/agent/axi_lite_monitor.sv(119) @ 9055000: uvm_test_top.env.agt.monitor [AXI_LITE_MON] WRITE addr=0x00000008 data=0x555556b8 strb=0xe resp=0x0 order=AXI_LITE_AW_BEFORE_W b_wait=0
UVM_INFO ../tb/env/axi_lite_scoreboard.sv(71) @ 9055000: uvm_test_top.env.scb [AXI_LITE_SCB] Model write: addr=0x00000008 data=0x555556b8 strb=0xe
UVM_INFO ../tb/agent/axi_lite_driver.sv(94) @ 9065000: uvm_test_top.env.agt.driver [AXI_LITE_DRV] WRITE addr=0x00000008 data=0x555556b8 strb=0xe resp=0x0 aw_delay=1 w_delay=3 b_ready_delay=0
UVM_INFO ../tb/agent/axi_lite_monitor.sv(167) @ 9135000: uvm_test_top.env.agt.monitor [AXI_LITE_MON] READ addr=0x00000008 rdata=0x55555674 resp=0x0 r_wait=2
UVM_INFO ../tb/env/axi_lite_scoreboard.sv(113) @ 9135000: uvm_test_top.env.scb [AXI_LITE_SCB] Read match: addr=0x00000008 data=0x55555674
UVM_INFO ../tb/agent/axi_lite_driver.sv(133) @ 9145000: uvm_test_top.env.agt.driver [AXI_LITE_DRV] READ addr=0x00000008 rdata=0x55555674 resp=0x0 ar_delay=2 r_ready_delay=1
UVM_INFO ../tb/agent/axi_lite_monitor.sv(119) @ 9205000: uvm_test_top.env.agt.monitor [AXI_LITE_MON] WRITE addr=0x00000008 data=0x12345584 strb=0xf resp=0x0 order=AXI_LITE_W_BEFORE_AW b_wait=1
UVM_INFO ../tb/env/axi_lite_scoreboard.sv(71) @ 9205000: uvm_test_top.env.scb [AXI_LITE_SCB] Model write: addr=0x00000008 data=0x12345584 strb=0xf
UVM_INFO ../tb/agent/axi_lite_driver.sv(94) @ 9215000: uvm_test_top.env.agt.driver [AXI_LITE_DRV] WRITE addr=0x00000008 data=0x12345584 strb=0xf resp=0x0 aw_delay=2 w_delay=0 b_ready_delay=1
UVM_INFO ../tb/agent/axi_lite_monitor.sv(167) @ 9305000: uvm_test_top.env.agt.monitor [AXI_LITE_MON] READ addr=0x00000008 rdata=0x12345584 resp=0x0 r_wait=3
UVM_INFO ../tb/env/axi_lite_scoreboard.sv(113) @ 9305000: uvm_test_top.env.scb [AXI_LITE_SCB] Read match: addr=0x00000008 data=0x12345584
UVM_INFO ../tb/agent/axi_lite_driver.sv(133) @ 9315000: uvm_test_top.env.agt.driver [AXI_LITE_DRV] READ addr=0x00000008 rdata=0x12345584 resp=0x0 ar_delay=3 r_ready_delay=2
UVM_INFO ../tb/agent/axi_lite_monitor.sv(119) @ 9395000: uvm_test_top.env.agt.monitor [AXI_LITE_MON] WRITE addr=0x0000000c data=0x55555140 strb=0x1 resp=0x0 order=AXI_LITE_AW_BEFORE_W b_wait=2
UVM_INFO ../tb/env/axi_lite_scoreboard.sv(71) @ 9395000: uvm_test_top.env.scb [AXI_LITE_SCB] Model write: addr=0x0000000c data=0x55555140 strb=0x1
UVM_INFO ../tb/agent/axi_lite_driver.sv(94) @ 9405000: uvm_test_top.env.agt.driver [AXI_LITE_DRV] WRITE addr=0x0000000c data=0x55555140 strb=0x1 resp=0x0 aw_delay=0 w_delay=3 b_ready_delay=2
UVM_INFO ../tb/agent/axi_lite_monitor.sv(167) @ 9485000: uvm_test_top.env.agt.monitor [AXI_LITE_MON] READ addr=0x0000000c rdata=0x55555540 resp=0x0 r_wait=4
UVM_INFO ../tb/env/axi_lite_scoreboard.sv(113) @ 9485000: uvm_test_top.env.scb [AXI_LITE_SCB] Read match: addr=0x0000000c data=0x55555540
UVM_INFO ../tb/agent/axi_lite_driver.sv(133) @ 9495000: uvm_test_top.env.agt.driver [AXI_LITE_DRV] READ addr=0x0000000c rdata=0x55555540 resp=0x0 ar_delay=1 r_ready_delay=3
UVM_INFO ../tb/agent/axi_lite_monitor.sv(119) @ 9565000: uvm_test_top.env.agt.monitor [AXI_LITE_MON] WRITE addr=0x0000000c data=0x1234525e strb=0x2 resp=0x0 order=AXI_LITE_W_BEFORE_AW b_wait=3
UVM_INFO ../tb/env/axi_lite_scoreboard.sv(71) @ 9565000: uvm_test_top.env.scb [AXI_LITE_SCB] Model write: addr=0x0000000c data=0x1234525e strb=0x2
UVM_INFO ../tb/agent/axi_lite_driver.sv(94) @ 9575000: uvm_test_top.env.agt.driver [AXI_LITE_DRV] WRITE addr=0x0000000c data=0x1234525e strb=0x2 resp=0x0 aw_delay=1 w_delay=0 b_ready_delay=3
UVM_INFO ../tb/agent/axi_lite_monitor.sv(167) @ 9675000: uvm_test_top.env.agt.monitor [AXI_LITE_MON] READ addr=0x0000000c rdata=0x55555240 resp=0x0 r_wait=5
UVM_INFO ../tb/env/axi_lite_scoreboard.sv(113) @ 9675000: uvm_test_top.env.scb [AXI_LITE_SCB] Read match: addr=0x0000000c data=0x55555240
UVM_INFO ../tb/agent/axi_lite_driver.sv(133) @ 9685000: uvm_test_top.env.agt.driver [AXI_LITE_DRV] READ addr=0x0000000c rdata=0x55555240 resp=0x0 ar_delay=2 r_ready_delay=4
UVM_INFO ../tb/agent/axi_lite_monitor.sv(119) @ 9775000: uvm_test_top.env.agt.monitor [AXI_LITE_MON] WRITE addr=0x0000000c data=0xcafebad8 strb=0x3 resp=0x0 order=AXI_LITE_W_BEFORE_AW b_wait=4
UVM_INFO ../tb/env/axi_lite_scoreboard.sv(71) @ 9775000: uvm_test_top.env.scb [AXI_LITE_SCB] Model write: addr=0x0000000c data=0xcafebad8 strb=0x3
UVM_INFO ../tb/agent/axi_lite_driver.sv(94) @ 9785000: uvm_test_top.env.agt.driver [AXI_LITE_DRV] WRITE addr=0x0000000c data=0xcafebad8 strb=0x3 resp=0x0 aw_delay=2 w_delay=1 b_ready_delay=4
UVM_INFO ../tb/agent/axi_lite_monitor.sv(167) @ 9855000: uvm_test_top.env.agt.monitor [AXI_LITE_MON] READ addr=0x0000000c rdata=0x5555bad8 resp=0x0 r_wait=1
UVM_INFO ../tb/env/axi_lite_scoreboard.sv(113) @ 9855000: uvm_test_top.env.scb [AXI_LITE_SCB] Read match: addr=0x0000000c data=0x5555bad8
UVM_INFO ../tb/agent/axi_lite_driver.sv(133) @ 9865000: uvm_test_top.env.agt.driver [AXI_LITE_DRV] READ addr=0x0000000c rdata=0x5555bad8 resp=0x0 ar_delay=3 r_ready_delay=0
UVM_INFO ../tb/agent/axi_lite_monitor.sv(119) @ 9925000: uvm_test_top.env.agt.monitor [AXI_LITE_MON] WRITE addr=0x0000000c data=0x00000440 strb=0x4 resp=0x0 order=AXI_LITE_W_BEFORE_AW b_wait=0
UVM_INFO ../tb/env/axi_lite_scoreboard.sv(71) @ 9925000: uvm_test_top.env.scb [AXI_LITE_SCB] Model write: addr=0x0000000c data=0x00000440 strb=0x4
UVM_INFO ../tb/agent/axi_lite_driver.sv(94) @ 9935000: uvm_test_top.env.agt.driver [AXI_LITE_DRV] WRITE addr=0x0000000c data=0x00000440 strb=0x4 resp=0x0 aw_delay=3 w_delay=2 b_ready_delay=0
UVM_INFO ../tb/agent/axi_lite_monitor.sv(167) @ 9985000: uvm_test_top.env.agt.monitor [AXI_LITE_MON] READ addr=0x0000000c rdata=0x5500bad8 resp=0x0 r_wait=2
UVM_INFO ../tb/env/axi_lite_scoreboard.sv(113) @ 9985000: uvm_test_top.env.scb [AXI_LITE_SCB] Read match: addr=0x0000000c data=0x5500bad8
UVM_INFO ../tb/agent/axi_lite_driver.sv(133) @ 9995000: uvm_test_top.env.agt.driver [AXI_LITE_DRV] READ addr=0x0000000c rdata=0x5500bad8 resp=0x0 ar_delay=0 r_ready_delay=1
UVM_INFO ../tb/agent/axi_lite_monitor.sv(119) @ 10065000: uvm_test_top.env.agt.monitor [AXI_LITE_MON] WRITE addr=0x0000000c data=0xfffffbae strb=0x5 resp=0x0 order=AXI_LITE_AW_BEFORE_W b_wait=1
UVM_INFO ../tb/env/axi_lite_scoreboard.sv(71) @ 10065000: uvm_test_top.env.scb [AXI_LITE_SCB] Model write: addr=0x0000000c data=0xfffffbae strb=0x5
UVM_INFO ../tb/agent/axi_lite_driver.sv(94) @ 10075000: uvm_test_top.env.agt.driver [AXI_LITE_DRV] WRITE addr=0x0000000c data=0xfffffbae strb=0x5 resp=0x0 aw_delay=0 w_delay=3 b_ready_delay=1
UVM_INFO ../tb/agent/axi_lite_monitor.sv(167) @ 10145000: uvm_test_top.env.agt.monitor [AXI_LITE_MON] READ addr=0x0000000c rdata=0x55ffbaae resp=0x0 r_wait=3
UVM_INFO ../tb/env/axi_lite_scoreboard.sv(113) @ 10145000: uvm_test_top.env.scb [AXI_LITE_SCB] Read match: addr=0x0000000c data=0x55ffbaae
UVM_INFO ../tb/agent/axi_lite_driver.sv(133) @ 10155000: uvm_test_top.env.agt.driver [AXI_LITE_DRV] READ addr=0x0000000c rdata=0x55ffbaae resp=0x0 ar_delay=1 r_ready_delay=2
UVM_INFO ../tb/agent/axi_lite_monitor.sv(119) @ 10215000: uvm_test_top.env.agt.monitor [AXI_LITE_MON] WRITE addr=0x0000000c data=0xaaaaaec8 strb=0x6 resp=0x0 order=AXI_LITE_W_BEFORE_AW b_wait=2
UVM_INFO ../tb/env/axi_lite_scoreboard.sv(71) @ 10215000: uvm_test_top.env.scb [AXI_LITE_SCB] Model write: addr=0x0000000c data=0xaaaaaec8 strb=0x6
UVM_INFO ../tb/agent/axi_lite_driver.sv(94) @ 10225000: uvm_test_top.env.agt.driver [AXI_LITE_DRV] WRITE addr=0x0000000c data=0xaaaaaec8 strb=0x6 resp=0x0 aw_delay=1 w_delay=0 b_ready_delay=2
UVM_INFO ../tb/agent/axi_lite_monitor.sv(167) @ 10315000: uvm_test_top.env.agt.monitor [AXI_LITE_MON] READ addr=0x0000000c rdata=0x55aaaeae resp=0x0 r_wait=4
UVM_INFO ../tb/env/axi_lite_scoreboard.sv(113) @ 10315000: uvm_test_top.env.scb [AXI_LITE_SCB] Read match: addr=0x0000000c data=0x55aaaeae
UVM_INFO ../tb/agent/axi_lite_driver.sv(133) @ 10325000: uvm_test_top.env.agt.driver [AXI_LITE_DRV] READ addr=0x0000000c rdata=0x55aaaeae resp=0x0 ar_delay=2 r_ready_delay=3
UVM_INFO ../tb/agent/axi_lite_monitor.sv(119) @ 10405000: uvm_test_top.env.agt.monitor [AXI_LITE_MON] WRITE addr=0x0000000c data=0x55555126 strb=0x7 resp=0x0 order=AXI_LITE_W_BEFORE_AW b_wait=3
UVM_INFO ../tb/env/axi_lite_scoreboard.sv(71) @ 10405000: uvm_test_top.env.scb [AXI_LITE_SCB] Model write: addr=0x0000000c data=0x55555126 strb=0x7
UVM_INFO ../tb/agent/axi_lite_driver.sv(94) @ 10415000: uvm_test_top.env.agt.driver [AXI_LITE_DRV] WRITE addr=0x0000000c data=0x55555126 strb=0x7 resp=0x0 aw_delay=2 w_delay=1 b_ready_delay=3
UVM_INFO ../tb/agent/axi_lite_monitor.sv(167) @ 10525000: uvm_test_top.env.agt.monitor [AXI_LITE_MON] READ addr=0x0000000c rdata=0x55555126 resp=0x0 r_wait=5
UVM_INFO ../tb/env/axi_lite_scoreboard.sv(113) @ 10525000: uvm_test_top.env.scb [AXI_LITE_SCB] Read match: addr=0x0000000c data=0x55555126
UVM_INFO ../tb/agent/axi_lite_driver.sv(133) @ 10535000: uvm_test_top.env.agt.driver [AXI_LITE_DRV] READ addr=0x0000000c rdata=0x55555126 resp=0x0 ar_delay=3 r_ready_delay=4
UVM_INFO ../tb/agent/axi_lite_monitor.sv(119) @ 10635000: uvm_test_top.env.agt.monitor [AXI_LITE_MON] WRITE addr=0x0000000c data=0x123452f4 strb=0x8 resp=0x0 order=AXI_LITE_W_BEFORE_AW b_wait=4
UVM_INFO ../tb/env/axi_lite_scoreboard.sv(71) @ 10635000: uvm_test_top.env.scb [AXI_LITE_SCB] Model write: addr=0x0000000c data=0x123452f4 strb=0x8
UVM_INFO ../tb/agent/axi_lite_driver.sv(94) @ 10645000: uvm_test_top.env.agt.driver [AXI_LITE_DRV] WRITE addr=0x0000000c data=0x123452f4 strb=0x8 resp=0x0 aw_delay=3 w_delay=2 b_ready_delay=4
UVM_INFO ../tb/agent/axi_lite_monitor.sv(167) @ 10685000: uvm_test_top.env.agt.monitor [AXI_LITE_MON] READ addr=0x0000000c rdata=0x12555126 resp=0x0 r_wait=1
UVM_INFO ../tb/env/axi_lite_scoreboard.sv(113) @ 10685000: uvm_test_top.env.scb [AXI_LITE_SCB] Read match: addr=0x0000000c data=0x12555126
UVM_INFO ../tb/agent/axi_lite_driver.sv(133) @ 10695000: uvm_test_top.env.agt.driver [AXI_LITE_DRV] READ addr=0x0000000c rdata=0x12555126 resp=0x0 ar_delay=0 r_ready_delay=0
UVM_INFO ../tb/agent/axi_lite_monitor.sv(119) @ 10755000: uvm_test_top.env.agt.monitor [AXI_LITE_MON] WRITE addr=0x0000000c data=0xcafeba72 strb=0x9 resp=0x0 order=AXI_LITE_AW_BEFORE_W b_wait=0
UVM_INFO ../tb/env/axi_lite_scoreboard.sv(71) @ 10755000: uvm_test_top.env.scb [AXI_LITE_SCB] Model write: addr=0x0000000c data=0xcafeba72 strb=0x9
UVM_INFO ../tb/agent/axi_lite_driver.sv(94) @ 10765000: uvm_test_top.env.agt.driver [AXI_LITE_DRV] WRITE addr=0x0000000c data=0xcafeba72 strb=0x9 resp=0x0 aw_delay=0 w_delay=3 b_ready_delay=0
UVM_INFO ../tb/agent/axi_lite_monitor.sv(167) @ 10825000: uvm_test_top.env.agt.monitor [AXI_LITE_MON] READ addr=0x0000000c rdata=0xca555172 resp=0x0 r_wait=2
UVM_INFO ../tb/env/axi_lite_scoreboard.sv(113) @ 10825000: uvm_test_top.env.scb [AXI_LITE_SCB] Read match: addr=0x0000000c data=0xca555172
UVM_INFO ../tb/agent/axi_lite_driver.sv(133) @ 10835000: uvm_test_top.env.agt.driver [AXI_LITE_DRV] READ addr=0x0000000c rdata=0xca555172 resp=0x0 ar_delay=1 r_ready_delay=1
UVM_INFO ../tb/agent/axi_lite_monitor.sv(119) @ 10885000: uvm_test_top.env.agt.monitor [AXI_LITE_MON] WRITE addr=0x0000000c data=0x000004ae strb=0xa resp=0x0 order=AXI_LITE_W_BEFORE_AW b_wait=1
UVM_INFO ../tb/env/axi_lite_scoreboard.sv(71) @ 10885000: uvm_test_top.env.scb [AXI_LITE_SCB] Model write: addr=0x0000000c data=0x000004ae strb=0xa
UVM_INFO ../tb/agent/axi_lite_driver.sv(94) @ 10895000: uvm_test_top.env.agt.driver [AXI_LITE_DRV] WRITE addr=0x0000000c data=0x000004ae strb=0xa resp=0x0 aw_delay=1 w_delay=0 b_ready_delay=1
UVM_INFO ../tb/agent/axi_lite_monitor.sv(167) @ 10975000: uvm_test_top.env.agt.monitor [AXI_LITE_MON] READ addr=0x0000000c rdata=0x00550472 resp=0x0 r_wait=3
UVM_INFO ../tb/env/axi_lite_scoreboard.sv(113) @ 10975000: uvm_test_top.env.scb [AXI_LITE_SCB] Read match: addr=0x0000000c data=0x00550472
UVM_INFO ../tb/agent/axi_lite_driver.sv(133) @ 10985000: uvm_test_top.env.agt.driver [AXI_LITE_DRV] READ addr=0x0000000c rdata=0x00550472 resp=0x0 ar_delay=2 r_ready_delay=2
UVM_INFO ../tb/agent/axi_lite_monitor.sv(119) @ 11055000: uvm_test_top.env.agt.monitor [AXI_LITE_MON] WRITE addr=0x0000000c data=0xfffffb40 strb=0xb resp=0x0 order=AXI_LITE_W_BEFORE_AW b_wait=2
UVM_INFO ../tb/env/axi_lite_scoreboard.sv(71) @ 11055000: uvm_test_top.env.scb [AXI_LITE_SCB] Model write: addr=0x0000000c data=0xfffffb40 strb=0xb
UVM_INFO ../tb/agent/axi_lite_driver.sv(94) @ 11065000: uvm_test_top.env.agt.driver [AXI_LITE_DRV] WRITE addr=0x0000000c data=0xfffffb40 strb=0xb resp=0x0 aw_delay=2 w_delay=1 b_ready_delay=2
UVM_INFO ../tb/agent/axi_lite_monitor.sv(167) @ 11165000: uvm_test_top.env.agt.monitor [AXI_LITE_MON] READ addr=0x0000000c rdata=0xff55fb40 resp=0x0 r_wait=4
UVM_INFO ../tb/env/axi_lite_scoreboard.sv(113) @ 11165000: uvm_test_top.env.scb [AXI_LITE_SCB] Read match: addr=0x0000000c data=0xff55fb40
UVM_INFO ../tb/agent/axi_lite_driver.sv(133) @ 11175000: uvm_test_top.env.agt.driver [AXI_LITE_DRV] READ addr=0x0000000c rdata=0xff55fb40 resp=0x0 ar_delay=3 r_ready_delay=3
UVM_INFO ../tb/agent/axi_lite_monitor.sv(119) @ 11265000: uvm_test_top.env.agt.monitor [AXI_LITE_MON] WRITE addr=0x0000000c data=0xaaaaae62 strb=0xc resp=0x0 order=AXI_LITE_W_BEFORE_AW b_wait=3
UVM_INFO ../tb/env/axi_lite_scoreboard.sv(71) @ 11265000: uvm_test_top.env.scb [AXI_LITE_SCB] Model write: addr=0x0000000c data=0xaaaaae62 strb=0xc
UVM_INFO ../tb/agent/axi_lite_driver.sv(94) @ 11275000: uvm_test_top.env.agt.driver [AXI_LITE_DRV] WRITE addr=0x0000000c data=0xaaaaae62 strb=0xc resp=0x0 aw_delay=3 w_delay=2 b_ready_delay=3
UVM_INFO ../tb/agent/axi_lite_monitor.sv(167) @ 11355000: uvm_test_top.env.agt.monitor [AXI_LITE_MON] READ addr=0x0000000c rdata=0xaaaafb40 resp=0x0 r_wait=5
UVM_INFO ../tb/env/axi_lite_scoreboard.sv(113) @ 11355000: uvm_test_top.env.scb [AXI_LITE_SCB] Read match: addr=0x0000000c data=0xaaaafb40
UVM_INFO ../tb/agent/axi_lite_driver.sv(133) @ 11365000: uvm_test_top.env.agt.driver [AXI_LITE_DRV] READ addr=0x0000000c rdata=0xaaaafb40 resp=0x0 ar_delay=0 r_ready_delay=4
UVM_INFO ../tb/agent/axi_lite_monitor.sv(119) @ 11465000: uvm_test_top.env.agt.monitor [AXI_LITE_MON] WRITE addr=0x0000000c data=0x5555518c strb=0xd resp=0x0 order=AXI_LITE_AW_BEFORE_W b_wait=4
UVM_INFO ../tb/env/axi_lite_scoreboard.sv(71) @ 11465000: uvm_test_top.env.scb [AXI_LITE_SCB] Model write: addr=0x0000000c data=0x5555518c strb=0xd
UVM_INFO ../tb/agent/axi_lite_driver.sv(94) @ 11475000: uvm_test_top.env.agt.driver [AXI_LITE_DRV] WRITE addr=0x0000000c data=0x5555518c strb=0xd resp=0x0 aw_delay=0 w_delay=3 b_ready_delay=4
UVM_INFO ../tb/agent/axi_lite_monitor.sv(167) @ 11525000: uvm_test_top.env.agt.monitor [AXI_LITE_MON] READ addr=0x0000000c rdata=0x5555fb8c resp=0x0 r_wait=1
UVM_INFO ../tb/env/axi_lite_scoreboard.sv(113) @ 11525000: uvm_test_top.env.scb [AXI_LITE_SCB] Read match: addr=0x0000000c data=0x5555fb8c
UVM_INFO ../tb/agent/axi_lite_driver.sv(133) @ 11535000: uvm_test_top.env.agt.driver [AXI_LITE_DRV] READ addr=0x0000000c rdata=0x5555fb8c resp=0x0 ar_delay=1 r_ready_delay=0
UVM_INFO ../tb/agent/axi_lite_monitor.sv(119) @ 11575000: uvm_test_top.env.agt.monitor [AXI_LITE_MON] WRITE addr=0x0000000c data=0x12345292 strb=0xe resp=0x0 order=AXI_LITE_W_BEFORE_AW b_wait=0
UVM_INFO ../tb/env/axi_lite_scoreboard.sv(71) @ 11575000: uvm_test_top.env.scb [AXI_LITE_SCB] Model write: addr=0x0000000c data=0x12345292 strb=0xe
UVM_INFO ../tb/agent/axi_lite_driver.sv(94) @ 11585000: uvm_test_top.env.agt.driver [AXI_LITE_DRV] WRITE addr=0x0000000c data=0x12345292 strb=0xe resp=0x0 aw_delay=1 w_delay=0 b_ready_delay=0
UVM_INFO ../tb/agent/axi_lite_monitor.sv(167) @ 11655000: uvm_test_top.env.agt.monitor [AXI_LITE_MON] READ addr=0x0000000c rdata=0x1234528c resp=0x0 r_wait=2
UVM_INFO ../tb/env/axi_lite_scoreboard.sv(113) @ 11655000: uvm_test_top.env.scb [AXI_LITE_SCB] Read match: addr=0x0000000c data=0x1234528c
UVM_INFO ../tb/agent/axi_lite_driver.sv(133) @ 11665000: uvm_test_top.env.agt.driver [AXI_LITE_DRV] READ addr=0x0000000c rdata=0x1234528c resp=0x0 ar_delay=2 r_ready_delay=1
UVM_INFO ../tb/agent/axi_lite_monitor.sv(119) @ 11725000: uvm_test_top.env.agt.monitor [AXI_LITE_MON] WRITE addr=0x0000000c data=0xcafeba14 strb=0xf resp=0x0 order=AXI_LITE_W_BEFORE_AW b_wait=1
UVM_INFO ../tb/env/axi_lite_scoreboard.sv(71) @ 11725000: uvm_test_top.env.scb [AXI_LITE_SCB] Model write: addr=0x0000000c data=0xcafeba14 strb=0xf
UVM_INFO ../tb/agent/axi_lite_driver.sv(94) @ 11735000: uvm_test_top.env.agt.driver [AXI_LITE_DRV] WRITE addr=0x0000000c data=0xcafeba14 strb=0xf resp=0x0 aw_delay=2 w_delay=1 b_ready_delay=1
UVM_INFO ../tb/agent/axi_lite_monitor.sv(167) @ 11825000: uvm_test_top.env.agt.monitor [AXI_LITE_MON] READ addr=0x0000000c rdata=0xcafeba14 resp=0x0 r_wait=3
UVM_INFO ../tb/env/axi_lite_scoreboard.sv(113) @ 11825000: uvm_test_top.env.scb [AXI_LITE_SCB] Read match: addr=0x0000000c data=0xcafeba14
UVM_INFO ../tb/agent/axi_lite_driver.sv(133) @ 11835000: uvm_test_top.env.agt.driver [AXI_LITE_DRV] READ addr=0x0000000c rdata=0xcafeba14 resp=0x0 ar_delay=3 r_ready_delay=2
UVM_INFO ../tb/agent/axi_lite_monitor.sv(119) @ 11885000: uvm_test_top.env.agt.monitor [AXI_LITE_MON] WRITE addr=0x00000010 data=0x1234536c strb=0x1 resp=0x0 order=AXI_LITE_AW_W_SAME b_wait=2
UVM_INFO ../tb/env/axi_lite_scoreboard.sv(71) @ 11885000: uvm_test_top.env.scb [AXI_LITE_SCB] Model write: addr=0x00000010 data=0x1234536c strb=0x1
UVM_INFO ../tb/agent/axi_lite_driver.sv(94) @ 11895000: uvm_test_top.env.agt.driver [AXI_LITE_DRV] WRITE addr=0x00000010 data=0x1234536c strb=0x1 resp=0x0 aw_delay=0 w_delay=0 b_ready_delay=2
UVM_INFO ../tb/agent/axi_lite_monitor.sv(167) @ 11975000: uvm_test_top.env.agt.monitor [AXI_LITE_MON] READ addr=0x00000010 rdata=0x1234566c resp=0x0 r_wait=4
UVM_INFO ../tb/env/axi_lite_scoreboard.sv(113) @ 11975000: uvm_test_top.env.scb [AXI_LITE_SCB] Read match: addr=0x00000010 data=0x1234566c
UVM_INFO ../tb/agent/axi_lite_driver.sv(133) @ 11985000: uvm_test_top.env.agt.driver [AXI_LITE_DRV] READ addr=0x00000010 rdata=0x1234566c resp=0x0 ar_delay=1 r_ready_delay=3
UVM_INFO ../tb/agent/axi_lite_monitor.sv(119) @ 12055000: uvm_test_top.env.agt.monitor [AXI_LITE_MON] WRITE addr=0x00000010 data=0xcafebbc8 strb=0x2 resp=0x0 order=AXI_LITE_AW_W_SAME b_wait=3
UVM_INFO ../tb/env/axi_lite_scoreboard.sv(71) @ 12055000: uvm_test_top.env.scb [AXI_LITE_SCB] Model write: addr=0x00000010 data=0xcafebbc8 strb=0x2
UVM_INFO ../tb/agent/axi_lite_driver.sv(94) @ 12065000: uvm_test_top.env.agt.driver [AXI_LITE_DRV] WRITE addr=0x00000010 data=0xcafebbc8 strb=0x2 resp=0x0 aw_delay=1 w_delay=1 b_ready_delay=3
UVM_INFO ../tb/agent/axi_lite_monitor.sv(167) @ 12165000: uvm_test_top.env.agt.monitor [AXI_LITE_MON] READ addr=0x00000010 rdata=0x1234bb6c resp=0x0 r_wait=5
UVM_INFO ../tb/env/axi_lite_scoreboard.sv(113) @ 12165000: uvm_test_top.env.scb [AXI_LITE_SCB] Read match: addr=0x00000010 data=0x1234bb6c
UVM_INFO ../tb/agent/axi_lite_driver.sv(133) @ 12175000: uvm_test_top.env.agt.driver [AXI_LITE_DRV] READ addr=0x00000010 rdata=0x1234bb6c resp=0x0 ar_delay=2 r_ready_delay=4
UVM_INFO ../tb/agent/axi_lite_monitor.sv(119) @ 12265000: uvm_test_top.env.agt.monitor [AXI_LITE_MON] WRITE addr=0x00000010 data=0x00000536 strb=0x3 resp=0x0 order=AXI_LITE_AW_W_SAME b_wait=4
UVM_INFO ../tb/env/axi_lite_scoreboard.sv(71) @ 12265000: uvm_test_top.env.scb [AXI_LITE_SCB] Model write: addr=0x00000010 data=0x00000536 strb=0x3
UVM_INFO ../tb/agent/axi_lite_driver.sv(94) @ 12275000: uvm_test_top.env.agt.driver [AXI_LITE_DRV] WRITE addr=0x00000010 data=0x00000536 strb=0x3 resp=0x0 aw_delay=2 w_delay=2 b_ready_delay=4
UVM_INFO ../tb/agent/axi_lite_monitor.sv(167) @ 12345000: uvm_test_top.env.agt.monitor [AXI_LITE_MON] READ addr=0x00000010 rdata=0x12340536 resp=0x0 r_wait=1
UVM_INFO ../tb/env/axi_lite_scoreboard.sv(113) @ 12345000: uvm_test_top.env.scb [AXI_LITE_SCB] Read match: addr=0x00000010 data=0x12340536
UVM_INFO ../tb/agent/axi_lite_driver.sv(133) @ 12355000: uvm_test_top.env.agt.driver [AXI_LITE_DRV] READ addr=0x00000010 rdata=0x12340536 resp=0x0 ar_delay=3 r_ready_delay=0
UVM_INFO ../tb/agent/axi_lite_monitor.sv(119) @ 12415000: uvm_test_top.env.agt.monitor [AXI_LITE_MON] WRITE addr=0x00000010 data=0xfffffabe strb=0x4 resp=0x0 order=AXI_LITE_AW_W_SAME b_wait=0
UVM_INFO ../tb/env/axi_lite_scoreboard.sv(71) @ 12415000: uvm_test_top.env.scb [AXI_LITE_SCB] Model write: addr=0x00000010 data=0xfffffabe strb=0x4
UVM_INFO ../tb/agent/axi_lite_driver.sv(94) @ 12425000: uvm_test_top.env.agt.driver [AXI_LITE_DRV] WRITE addr=0x00000010 data=0xfffffabe strb=0x4 resp=0x0 aw_delay=3 w_delay=3 b_ready_delay=0
UVM_INFO ../tb/agent/axi_lite_monitor.sv(167) @ 12475000: uvm_test_top.env.agt.monitor [AXI_LITE_MON] READ addr=0x00000010 rdata=0x12ff0536 resp=0x0 r_wait=2
UVM_INFO ../tb/env/axi_lite_scoreboard.sv(113) @ 12475000: uvm_test_top.env.scb [AXI_LITE_SCB] Read match: addr=0x00000010 data=0x12ff0536
UVM_INFO ../tb/agent/axi_lite_driver.sv(133) @ 12485000: uvm_test_top.env.agt.driver [AXI_LITE_DRV] READ addr=0x00000010 rdata=0x12ff0536 resp=0x0 ar_delay=0 r_ready_delay=1
UVM_INFO ../tb/agent/axi_lite_monitor.sv(119) @ 12525000: uvm_test_top.env.agt.monitor [AXI_LITE_MON] WRITE addr=0x00000010 data=0xaaaaaffa strb=0x5 resp=0x0 order=AXI_LITE_AW_W_SAME b_wait=1
UVM_INFO ../tb/env/axi_lite_scoreboard.sv(71) @ 12525000: uvm_test_top.env.scb [AXI_LITE_SCB] Model write: addr=0x00000010 data=0xaaaaaffa strb=0x5
UVM_INFO ../tb/agent/axi_lite_driver.sv(94) @ 12535000: uvm_test_top.env.agt.driver [AXI_LITE_DRV] WRITE addr=0x00000010 data=0xaaaaaffa strb=0x5 resp=0x0 aw_delay=0 w_delay=0 b_ready_delay=1
UVM_INFO ../tb/agent/axi_lite_monitor.sv(167) @ 12605000: uvm_test_top.env.agt.monitor [AXI_LITE_MON] READ addr=0x00000010 rdata=0x12aa05fa resp=0x0 r_wait=3
UVM_INFO ../tb/env/axi_lite_scoreboard.sv(113) @ 12605000: uvm_test_top.env.scb [AXI_LITE_SCB] Read match: addr=0x00000010 data=0x12aa05fa
UVM_INFO ../tb/agent/axi_lite_driver.sv(133) @ 12615000: uvm_test_top.env.agt.driver [AXI_LITE_DRV] READ addr=0x00000010 rdata=0x12aa05fa resp=0x0 ar_delay=1 r_ready_delay=2
UVM_INFO ../tb/agent/axi_lite_monitor.sv(119) @ 12675000: uvm_test_top.env.agt.monitor [AXI_LITE_MON] WRITE addr=0x00000010 data=0x55555036 strb=0x6 resp=0x0 order=AXI_LITE_AW_W_SAME b_wait=2
UVM_INFO ../tb/env/axi_lite_scoreboard.sv(71) @ 12675000: uvm_test_top.env.scb [AXI_LITE_SCB] Model write: addr=0x00000010 data=0x55555036 strb=0x6
UVM_INFO ../tb/agent/axi_lite_driver.sv(94) @ 12685000: uvm_test_top.env.agt.driver [AXI_LITE_DRV] WRITE addr=0x00000010 data=0x55555036 strb=0x6 resp=0x0 aw_delay=1 w_delay=1 b_ready_delay=2
UVM_INFO ../tb/agent/axi_lite_monitor.sv(167) @ 12775000: uvm_test_top.env.agt.monitor [AXI_LITE_MON] READ addr=0x00000010 rdata=0x125550fa resp=0x0 r_wait=4
UVM_INFO ../tb/env/axi_lite_scoreboard.sv(113) @ 12775000: uvm_test_top.env.scb [AXI_LITE_SCB] Read match: addr=0x00000010 data=0x125550fa
UVM_INFO ../tb/agent/axi_lite_driver.sv(133) @ 12785000: uvm_test_top.env.agt.driver [AXI_LITE_DRV] READ addr=0x00000010 rdata=0x125550fa resp=0x0 ar_delay=2 r_ready_delay=3
UVM_INFO ../tb/agent/axi_lite_monitor.sv(119) @ 12865000: uvm_test_top.env.agt.monitor [AXI_LITE_MON] WRITE addr=0x00000010 data=0x1234530a strb=0x7 resp=0x0 order=AXI_LITE_AW_W_SAME b_wait=3
UVM_INFO ../tb/env/axi_lite_scoreboard.sv(71) @ 12865000: uvm_test_top.env.scb [AXI_LITE_SCB] Model write: addr=0x00000010 data=0x1234530a strb=0x7
UVM_INFO ../tb/agent/axi_lite_driver.sv(94) @ 12875000: uvm_test_top.env.agt.driver [AXI_LITE_DRV] WRITE addr=0x00000010 data=0x1234530a strb=0x7 resp=0x0 aw_delay=2 w_delay=2 b_ready_delay=3
UVM_INFO ../tb/agent/axi_lite_monitor.sv(167) @ 12985000: uvm_test_top.env.agt.monitor [AXI_LITE_MON] READ addr=0x00000010 rdata=0x1234530a resp=0x0 r_wait=5
UVM_INFO ../tb/env/axi_lite_scoreboard.sv(113) @ 12985000: uvm_test_top.env.scb [AXI_LITE_SCB] Read match: addr=0x00000010 data=0x1234530a
UVM_INFO ../tb/agent/axi_lite_driver.sv(133) @ 12995000: uvm_test_top.env.agt.driver [AXI_LITE_DRV] READ addr=0x00000010 rdata=0x1234530a resp=0x0 ar_delay=3 r_ready_delay=4
UVM_INFO ../tb/agent/axi_lite_monitor.sv(119) @ 13095000: uvm_test_top.env.agt.monitor [AXI_LITE_MON] WRITE addr=0x00000010 data=0xcafebb62 strb=0x8 resp=0x0 order=AXI_LITE_AW_W_SAME b_wait=4
UVM_INFO ../tb/env/axi_lite_scoreboard.sv(71) @ 13095000: uvm_test_top.env.scb [AXI_LITE_SCB] Model write: addr=0x00000010 data=0xcafebb62 strb=0x8
UVM_INFO ../tb/agent/axi_lite_driver.sv(94) @ 13105000: uvm_test_top.env.agt.driver [AXI_LITE_DRV] WRITE addr=0x00000010 data=0xcafebb62 strb=0x8 resp=0x0 aw_delay=3 w_delay=3 b_ready_delay=4
UVM_INFO ../tb/agent/axi_lite_monitor.sv(167) @ 13145000: uvm_test_top.env.agt.monitor [AXI_LITE_MON] READ addr=0x00000010 rdata=0xca34530a resp=0x0 r_wait=1
UVM_INFO ../tb/env/axi_lite_scoreboard.sv(113) @ 13145000: uvm_test_top.env.scb [AXI_LITE_SCB] Read match: addr=0x00000010 data=0xca34530a
UVM_INFO ../tb/agent/axi_lite_driver.sv(133) @ 13155000: uvm_test_top.env.agt.driver [AXI_LITE_DRV] READ addr=0x00000010 rdata=0xca34530a resp=0x0 ar_delay=0 r_ready_delay=0
UVM_INFO ../tb/agent/axi_lite_monitor.sv(119) @ 13185000: uvm_test_top.env.agt.monitor [AXI_LITE_MON] WRITE addr=0x00000010 data=0x0000059c strb=0x9 resp=0x0 order=AXI_LITE_AW_W_SAME b_wait=0
UVM_INFO ../tb/env/axi_lite_scoreboard.sv(71) @ 13185000: uvm_test_top.env.scb [AXI_LITE_SCB] Model write: addr=0x00000010 data=0x0000059c strb=0x9
UVM_INFO ../tb/agent/axi_lite_driver.sv(94) @ 13195000: uvm_test_top.env.agt.driver [AXI_LITE_DRV] WRITE addr=0x00000010 data=0x0000059c strb=0x9 resp=0x0 aw_delay=0 w_delay=0 b_ready_delay=0
UVM_INFO ../tb/agent/axi_lite_monitor.sv(167) @ 13255000: uvm_test_top.env.agt.monitor [AXI_LITE_MON] READ addr=0x00000010 rdata=0x0034539c resp=0x0 r_wait=2
UVM_INFO ../tb/env/axi_lite_scoreboard.sv(113) @ 13255000: uvm_test_top.env.scb [AXI_LITE_SCB] Read match: addr=0x00000010 data=0x0034539c
UVM_INFO ../tb/agent/axi_lite_driver.sv(133) @ 13265000: uvm_test_top.env.agt.driver [AXI_LITE_DRV] READ addr=0x00000010 rdata=0x0034539c resp=0x0 ar_delay=1 r_ready_delay=1
UVM_INFO ../tb/agent/axi_lite_monitor.sv(119) @ 13315000: uvm_test_top.env.agt.monitor [AXI_LITE_MON] WRITE addr=0x00000010 data=0xfffffa50 strb=0xa resp=0x0 order=AXI_LITE_AW_W_SAME b_wait=1
UVM_INFO ../tb/env/axi_lite_scoreboard.sv(71) @ 13315000: uvm_test_top.env.scb [AXI_LITE_SCB] Model write: addr=0x00000010 data=0xfffffa50 strb=0xa
UVM_INFO ../tb/agent/axi_lite_driver.sv(94) @ 13325000: uvm_test_top.env.agt.driver [AXI_LITE_DRV] WRITE addr=0x00000010 data=0xfffffa50 strb=0xa resp=0x0 aw_delay=1 w_delay=1 b_ready_delay=1
UVM_INFO ../tb/agent/axi_lite_monitor.sv(167) @ 13405000: uvm_test_top.env.agt.monitor [AXI_LITE_MON] READ addr=0x00000010 rdata=0xff34fa9c resp=0x0 r_wait=3
UVM_INFO ../tb/env/axi_lite_scoreboard.sv(113) @ 13405000: uvm_test_top.env.scb [AXI_LITE_SCB] Read match: addr=0x00000010 data=0xff34fa9c
UVM_INFO ../tb/agent/axi_lite_driver.sv(133) @ 13415000: uvm_test_top.env.agt.driver [AXI_LITE_DRV] READ addr=0x00000010 rdata=0xff34fa9c resp=0x0 ar_delay=2 r_ready_delay=2
UVM_INFO ../tb/agent/axi_lite_monitor.sv(119) @ 13485000: uvm_test_top.env.agt.monitor [AXI_LITE_MON] WRITE addr=0x00000010 data=0xaaaaaf14 strb=0xb resp=0x0 order=AXI_LITE_AW_W_SAME b_wait=2
UVM_INFO ../tb/env/axi_lite_scoreboard.sv(71) @ 13485000: uvm_test_top.env.scb [AXI_LITE_SCB] Model write: addr=0x00000010 data=0xaaaaaf14 strb=0xb
UVM_INFO ../tb/agent/axi_lite_driver.sv(94) @ 13495000: uvm_test_top.env.agt.driver [AXI_LITE_DRV] WRITE addr=0x00000010 data=0xaaaaaf14 strb=0xb resp=0x0 aw_delay=2 w_delay=2 b_ready_delay=2
UVM_INFO ../tb/agent/axi_lite_monitor.sv(167) @ 13595000: uvm_test_top.env.agt.monitor [AXI_LITE_MON] READ addr=0x00000010 rdata=0xaa34af14 resp=0x0 r_wait=4
UVM_INFO ../tb/env/axi_lite_scoreboard.sv(113) @ 13595000: uvm_test_top.env.scb [AXI_LITE_SCB] Read match: addr=0x00000010 data=0xaa34af14
UVM_INFO ../tb/agent/axi_lite_driver.sv(133) @ 13605000: uvm_test_top.env.agt.driver [AXI_LITE_DRV] READ addr=0x00000010 rdata=0xaa34af14 resp=0x0 ar_delay=3 r_ready_delay=3
UVM_INFO ../tb/agent/axi_lite_monitor.sv(119) @ 13695000: uvm_test_top.env.agt.monitor [AXI_LITE_MON] WRITE addr=0x00000010 data=0x5555509c strb=0xc resp=0x0 order=AXI_LITE_AW_W_SAME b_wait=3
UVM_INFO ../tb/env/axi_lite_scoreboard.sv(71) @ 13695000: uvm_test_top.env.scb [AXI_LITE_SCB] Model write: addr=0x00000010 data=0x5555509c strb=0xc
UVM_INFO ../tb/agent/axi_lite_driver.sv(94) @ 13705000: uvm_test_top.env.agt.driver [AXI_LITE_DRV] WRITE addr=0x00000010 data=0x5555509c strb=0xc resp=0x0 aw_delay=3 w_delay=3 b_ready_delay=3
UVM_INFO ../tb/agent/axi_lite_monitor.sv(167) @ 13785000: uvm_test_top.env.agt.monitor [AXI_LITE_MON] READ addr=0x00000010 rdata=0x5555af14 resp=0x0 r_wait=5
UVM_INFO ../tb/env/axi_lite_scoreboard.sv(113) @ 13785000: uvm_test_top.env.scb [AXI_LITE_SCB] Read match: addr=0x00000010 data=0x5555af14
UVM_INFO ../tb/agent/axi_lite_driver.sv(133) @ 13795000: uvm_test_top.env.agt.driver [AXI_LITE_DRV] READ addr=0x00000010 rdata=0x5555af14 resp=0x0 ar_delay=0 r_ready_delay=4
UVM_INFO ../tb/agent/axi_lite_monitor.sv(119) @ 13865000: uvm_test_top.env.agt.monitor [AXI_LITE_MON] WRITE addr=0x00000010 data=0x123453a0 strb=0xd resp=0x0 order=AXI_LITE_AW_W_SAME b_wait=4
UVM_INFO ../tb/env/axi_lite_scoreboard.sv(71) @ 13865000: uvm_test_top.env.scb [AXI_LITE_SCB] Model write: addr=0x00000010 data=0x123453a0 strb=0xd
UVM_INFO ../tb/agent/axi_lite_driver.sv(94) @ 13875000: uvm_test_top.env.agt.driver [AXI_LITE_DRV] WRITE addr=0x00000010 data=0x123453a0 strb=0xd resp=0x0 aw_delay=0 w_delay=0 b_ready_delay=4
UVM_INFO ../tb/agent/axi_lite_monitor.sv(167) @ 13925000: uvm_test_top.env.agt.monitor [AXI_LITE_MON] READ addr=0x00000010 rdata=0x1234afa0 resp=0x0 r_wait=1
UVM_INFO ../tb/env/axi_lite_scoreboard.sv(113) @ 13925000: uvm_test_top.env.scb [AXI_LITE_SCB] Read match: addr=0x00000010 data=0x1234afa0
UVM_INFO ../tb/agent/axi_lite_driver.sv(133) @ 13935000: uvm_test_top.env.agt.driver [AXI_LITE_DRV] READ addr=0x00000010 rdata=0x1234afa0 resp=0x0 ar_delay=1 r_ready_delay=0
UVM_INFO ../tb/agent/axi_lite_monitor.sv(119) @ 13975000: uvm_test_top.env.agt.monitor [AXI_LITE_MON] WRITE addr=0x00000010 data=0xcafebb04 strb=0xe resp=0x0 order=AXI_LITE_AW_W_SAME b_wait=0
UVM_INFO ../tb/env/axi_lite_scoreboard.sv(71) @ 13975000: uvm_test_top.env.scb [AXI_LITE_SCB] Model write: addr=0x00000010 data=0xcafebb04 strb=0xe
UVM_INFO ../tb/agent/axi_lite_driver.sv(94) @ 13985000: uvm_test_top.env.agt.driver [AXI_LITE_DRV] WRITE addr=0x00000010 data=0xcafebb04 strb=0xe resp=0x0 aw_delay=1 w_delay=1 b_ready_delay=0
UVM_INFO ../tb/agent/axi_lite_monitor.sv(167) @ 14055000: uvm_test_top.env.agt.monitor [AXI_LITE_MON] READ addr=0x00000010 rdata=0xcafebba0 resp=0x0 r_wait=2
UVM_INFO ../tb/env/axi_lite_scoreboard.sv(113) @ 14055000: uvm_test_top.env.scb [AXI_LITE_SCB] Read match: addr=0x00000010 data=0xcafebba0
UVM_INFO ../tb/agent/axi_lite_driver.sv(133) @ 14065000: uvm_test_top.env.agt.driver [AXI_LITE_DRV] READ addr=0x00000010 rdata=0xcafebba0 resp=0x0 ar_delay=2 r_ready_delay=1
UVM_INFO ../tb/agent/axi_lite_monitor.sv(119) @ 14125000: uvm_test_top.env.agt.monitor [AXI_LITE_MON] WRITE addr=0x00000010 data=0x000005fa strb=0xf resp=0x0 order=AXI_LITE_AW_W_SAME b_wait=1
UVM_INFO ../tb/env/axi_lite_scoreboard.sv(71) @ 14125000: uvm_test_top.env.scb [AXI_LITE_SCB] Model write: addr=0x00000010 data=0x000005fa strb=0xf
UVM_INFO ../tb/agent/axi_lite_driver.sv(94) @ 14135000: uvm_test_top.env.agt.driver [AXI_LITE_DRV] WRITE addr=0x00000010 data=0x000005fa strb=0xf resp=0x0 aw_delay=2 w_delay=2 b_ready_delay=1
UVM_INFO ../tb/agent/axi_lite_monitor.sv(167) @ 14225000: uvm_test_top.env.agt.monitor [AXI_LITE_MON] READ addr=0x00000010 rdata=0x000005fa resp=0x0 r_wait=3
UVM_INFO ../tb/env/axi_lite_scoreboard.sv(113) @ 14225000: uvm_test_top.env.scb [AXI_LITE_SCB] Read match: addr=0x00000010 data=0x000005fa
UVM_INFO ../tb/agent/axi_lite_driver.sv(133) @ 14235000: uvm_test_top.env.agt.driver [AXI_LITE_DRV] READ addr=0x00000010 rdata=0x000005fa resp=0x0 ar_delay=3 r_ready_delay=2
UVM_INFO ../tb/agent/axi_lite_monitor.sv(119) @ 14295000: uvm_test_top.env.agt.monitor [AXI_LITE_MON] WRITE addr=0x00000014 data=0xcafeb8f8 strb=0x1 resp=0x0 order=AXI_LITE_AW_BEFORE_W b_wait=2
UVM_INFO ../tb/env/axi_lite_scoreboard.sv(71) @ 14295000: uvm_test_top.env.scb [AXI_LITE_SCB] Model write: addr=0x00000014 data=0xcafeb8f8 strb=0x1
UVM_INFO ../tb/agent/axi_lite_driver.sv(94) @ 14305000: uvm_test_top.env.agt.driver [AXI_LITE_DRV] WRITE addr=0x00000014 data=0xcafeb8f8 strb=0x1 resp=0x0 aw_delay=0 w_delay=1 b_ready_delay=2
UVM_INFO ../tb/agent/axi_lite_monitor.sv(167) @ 14385000: uvm_test_top.env.agt.monitor [AXI_LITE_MON] READ addr=0x00000014 rdata=0xcafebef8 resp=0x0 r_wait=4
UVM_INFO ../tb/env/axi_lite_scoreboard.sv(113) @ 14385000: uvm_test_top.env.scb [AXI_LITE_SCB] Read match: addr=0x00000014 data=0xcafebef8
UVM_INFO ../tb/agent/axi_lite_driver.sv(133) @ 14395000: uvm_test_top.env.agt.driver [AXI_LITE_DRV] READ addr=0x00000014 rdata=0xcafebef8 resp=0x0 ar_delay=1 r_ready_delay=3
UVM_INFO ../tb/agent/axi_lite_monitor.sv(119) @ 14475000: uvm_test_top.env.agt.monitor [AXI_LITE_MON] WRITE addr=0x00000014 data=0x00000624 strb=0x2 resp=0x0 order=AXI_LITE_AW_BEFORE_W b_wait=3
UVM_INFO ../tb/env/axi_lite_scoreboard.sv(71) @ 14475000: uvm_test_top.env.scb [AXI_LITE_SCB] Model write: addr=0x00000014 data=0x00000624 strb=0x2
UVM_INFO ../tb/agent/axi_lite_driver.sv(94) @ 14485000: uvm_test_top.env.agt.driver [AXI_LITE_DRV] WRITE addr=0x00000014 data=0x00000624 strb=0x2 resp=0x0 aw_delay=1 w_delay=2 b_ready_delay=3
UVM_INFO ../tb/agent/axi_lite_monitor.sv(167) @ 14585000: uvm_test_top.env.agt.monitor [AXI_LITE_MON] READ addr=0x00000014 rdata=0xcafe06f8 resp=0x0 r_wait=5
UVM_INFO ../tb/env/axi_lite_scoreboard.sv(113) @ 14585000: uvm_test_top.env.scb [AXI_LITE_SCB] Read match: addr=0x00000014 data=0xcafe06f8
UVM_INFO ../tb/agent/axi_lite_driver.sv(133) @ 14595000: uvm_test_top.env.agt.driver [AXI_LITE_DRV] READ addr=0x00000014 rdata=0xcafe06f8 resp=0x0 ar_delay=2 r_ready_delay=4
UVM_INFO ../tb/agent/axi_lite_monitor.sv(119) @ 14695000: uvm_test_top.env.agt.monitor [AXI_LITE_MON] WRITE addr=0x00000014 data=0xfffff9ca strb=0x3 resp=0x0 order=AXI_LITE_AW_BEFORE_W b_wait=4
UVM_INFO ../tb/env/axi_lite_scoreboard.sv(71) @ 14695000: uvm_test_top.env.scb [AXI_LITE_SCB] Model write: addr=0x00000014 data=0xfffff9ca strb=0x3
UVM_INFO ../tb/agent/axi_lite_driver.sv(94) @ 14705000: uvm_test_top.env.agt.driver [AXI_LITE_DRV] WRITE addr=0x00000014 data=0xfffff9ca strb=0x3 resp=0x0 aw_delay=2 w_delay=3 b_ready_delay=4
UVM_INFO ../tb/agent/axi_lite_monitor.sv(167) @ 14775000: uvm_test_top.env.agt.monitor [AXI_LITE_MON] READ addr=0x00000014 rdata=0xcafef9ca resp=0x0 r_wait=1
UVM_INFO ../tb/env/axi_lite_scoreboard.sv(113) @ 14775000: uvm_test_top.env.scb [AXI_LITE_SCB] Read match: addr=0x00000014 data=0xcafef9ca
UVM_INFO ../tb/agent/axi_lite_driver.sv(133) @ 14785000: uvm_test_top.env.agt.driver [AXI_LITE_DRV] READ addr=0x00000014 rdata=0xcafef9ca resp=0x0 ar_delay=3 r_ready_delay=0
UVM_INFO ../tb/agent/axi_lite_monitor.sv(119) @ 14845000: uvm_test_top.env.agt.monitor [AXI_LITE_MON] WRITE addr=0x00000014 data=0xaaaaace8 strb=0x4 resp=0x0 order=AXI_LITE_W_BEFORE_AW b_wait=0
UVM_INFO ../tb/env/axi_lite_scoreboard.sv(71) @ 14845000: uvm_test_top.env.scb [AXI_LITE_SCB] Model write: addr=0x00000014 data=0xaaaaace8 strb=0x4
UVM_INFO ../tb/agent/axi_lite_driver.sv(94) @ 14855000: uvm_test_top.env.agt.driver [AXI_LITE_DRV] WRITE addr=0x00000014 data=0xaaaaace8 strb=0x4 resp=0x0 aw_delay=3 w_delay=0 b_ready_delay=0
UVM_INFO ../tb/agent/axi_lite_monitor.sv(167) @ 14905000: uvm_test_top.env.agt.monitor [AXI_LITE_MON] READ addr=0x00000014 rdata=0xcaaaf9ca resp=0x0 r_wait=2
UVM_INFO ../tb/env/axi_lite_scoreboard.sv(113) @ 14905000: uvm_test_top.env.scb [AXI_LITE_SCB] Read match: addr=0x00000014 data=0xcaaaf9ca
UVM_INFO ../tb/agent/axi_lite_driver.sv(133) @ 14915000: uvm_test_top.env.agt.driver [AXI_LITE_DRV] READ addr=0x00000014 rdata=0xcaaaf9ca resp=0x0 ar_delay=0 r_ready_delay=1
UVM_INFO ../tb/agent/axi_lite_monitor.sv(119) @ 14965000: uvm_test_top.env.agt.monitor [AXI_LITE_MON] WRITE addr=0x00000014 data=0x55555306 strb=0x5 resp=0x0 order=AXI_LITE_AW_BEFORE_W b_wait=1
UVM_INFO ../tb/env/axi_lite_scoreboard.sv(71) @ 14965000: uvm_test_top.env.scb [AXI_LITE_SCB] Model write: addr=0x00000014 data=0x55555306 strb=0x5
UVM_INFO ../tb/agent/axi_lite_driver.sv(94) @ 14975000: uvm_test_top.env.agt.driver [AXI_LITE_DRV] WRITE addr=0x00000014 data=0x55555306 strb=0x5 resp=0x0 aw_delay=0 w_delay=1 b_ready_delay=1
UVM_INFO ../tb/agent/axi_lite_monitor.sv(167) @ 15045000: uvm_test_top.env.agt.monitor [AXI_LITE_MON] READ addr=0x00000014 rdata=0xca55f906 resp=0x0 r_wait=3
UVM_INFO ../tb/env/axi_lite_scoreboard.sv(113) @ 15045000: uvm_test_top.env.scb [AXI_LITE_SCB] Read match: addr=0x00000014 data=0xca55f906
UVM_INFO ../tb/agent/axi_lite_driver.sv(133) @ 15055000: uvm_test_top.env.agt.driver [AXI_LITE_DRV] READ addr=0x00000014 rdata=0xca55f906 resp=0x0 ar_delay=1 r_ready_delay=2
UVM_INFO ../tb/agent/axi_lite_monitor.sv(119) @ 15125000: uvm_test_top.env.agt.monitor [AXI_LITE_MON] WRITE addr=0x00000014 data=0x12345018 strb=0x6 resp=0x0 order=AXI_LITE_AW_BEFORE_W b_wait=2
UVM_INFO ../tb/env/axi_lite_scoreboard.sv(71) @ 15125000: uvm_test_top.env.scb [AXI_LITE_SCB] Model write: addr=0x00000014 data=0x12345018 strb=0x6
UVM_INFO ../tb/agent/axi_lite_driver.sv(94) @ 15135000: uvm_test_top.env.agt.driver [AXI_LITE_DRV] WRITE addr=0x00000014 data=0x12345018 strb=0x6 resp=0x0 aw_delay=1 w_delay=2 b_ready_delay=2
UVM_INFO ../tb/agent/axi_lite_monitor.sv(167) @ 15225000: uvm_test_top.env.agt.monitor [AXI_LITE_MON] READ addr=0x00000014 rdata=0xca345006 resp=0x0 r_wait=4
UVM_INFO ../tb/env/axi_lite_scoreboard.sv(113) @ 15225000: uvm_test_top.env.scb [AXI_LITE_SCB] Read match: addr=0x00000014 data=0xca345006
UVM_INFO ../tb/agent/axi_lite_driver.sv(133) @ 15235000: uvm_test_top.env.agt.driver [AXI_LITE_DRV] READ addr=0x00000014 rdata=0xca345006 resp=0x0 ar_delay=2 r_ready_delay=3
UVM_INFO ../tb/agent/axi_lite_monitor.sv(119) @ 15325000: uvm_test_top.env.agt.monitor [AXI_LITE_MON] WRITE addr=0x00000014 data=0xcafeb89e strb=0x7 resp=0x0 order=AXI_LITE_AW_BEFORE_W b_wait=3
UVM_INFO ../tb/env/axi_lite_scoreboard.sv(71) @ 15325000: uvm_test_top.env.scb [AXI_LITE_SCB] Model write: addr=0x00000014 data=0xcafeb89e strb=0x7
UVM_INFO ../tb/agent/axi_lite_driver.sv(94) @ 15335000: uvm_test_top.env.agt.driver [AXI_LITE_DRV] WRITE addr=0x00000014 data=0xcafeb89e strb=0x7 resp=0x0 aw_delay=2 w_delay=3 b_ready_delay=3
UVM_INFO ../tb/agent/axi_lite_monitor.sv(167) @ 15445000: uvm_test_top.env.agt.monitor [AXI_LITE_MON] READ addr=0x00000014 rdata=0xcafeb89e resp=0x0 r_wait=5
UVM_INFO ../tb/env/axi_lite_scoreboard.sv(113) @ 15445000: uvm_test_top.env.scb [AXI_LITE_SCB] Read match: addr=0x00000014 data=0xcafeb89e
UVM_INFO ../tb/agent/axi_lite_driver.sv(133) @ 15455000: uvm_test_top.env.agt.driver [AXI_LITE_DRV] READ addr=0x00000014 rdata=0xcafeb89e resp=0x0 ar_delay=3 r_ready_delay=4
UVM_INFO ../tb/agent/axi_lite_monitor.sv(119) @ 15555000: uvm_test_top.env.agt.monitor [AXI_LITE_MON] WRITE addr=0x00000014 data=0x0000068e strb=0x8 resp=0x0 order=AXI_LITE_W_BEFORE_AW b_wait=4
UVM_INFO ../tb/env/axi_lite_scoreboard.sv(71) @ 15555000: uvm_test_top.env.scb [AXI_LITE_SCB] Model write: addr=0x00000014 data=0x0000068e strb=0x8
UVM_INFO ../tb/agent/axi_lite_driver.sv(94) @ 15565000: uvm_test_top.env.agt.driver [AXI_LITE_DRV] WRITE addr=0x00000014 data=0x0000068e strb=0x8 resp=0x0 aw_delay=3 w_delay=0 b_ready_delay=4
UVM_INFO ../tb/agent/axi_lite_monitor.sv(167) @ 15605000: uvm_test_top.env.agt.monitor [AXI_LITE_MON] READ addr=0x00000014 rdata=0x00feb89e resp=0x0 r_wait=1
UVM_INFO ../tb/env/axi_lite_scoreboard.sv(113) @ 15605000: uvm_test_top.env.scb [AXI_LITE_SCB] Read match: addr=0x00000014 data=0x00feb89e
UVM_INFO ../tb/agent/axi_lite_driver.sv(133) @ 15615000: uvm_test_top.env.agt.driver [AXI_LITE_DRV] READ addr=0x00000014 rdata=0x00feb89e resp=0x0 ar_delay=0 r_ready_delay=0
UVM_INFO ../tb/agent/axi_lite_monitor.sv(119) @ 15655000: uvm_test_top.env.agt.monitor [AXI_LITE_MON] WRITE addr=0x00000014 data=0xfffff960 strb=0x9 resp=0x0 order=AXI_LITE_AW_BEFORE_W b_wait=0
UVM_INFO ../tb/env/axi_lite_scoreboard.sv(71) @ 15655000: uvm_test_top.env.scb [AXI_LITE_SCB] Model write: addr=0x00000014 data=0xfffff960 strb=0x9
UVM_INFO ../tb/agent/axi_lite_driver.sv(94) @ 15665000: uvm_test_top.env.agt.driver [AXI_LITE_DRV] WRITE addr=0x00000014 data=0xfffff960 strb=0x9 resp=0x0 aw_delay=0 w_delay=1 b_ready_delay=0
UVM_INFO ../tb/agent/axi_lite_monitor.sv(167) @ 15725000: uvm_test_top.env.agt.monitor [AXI_LITE_MON] READ addr=0x00000014 rdata=0xfffeb860 resp=0x0 r_wait=2
UVM_INFO ../tb/env/axi_lite_scoreboard.sv(113) @ 15725000: uvm_test_top.env.scb [AXI_LITE_SCB] Read match: addr=0x00000014 data=0xfffeb860
UVM_INFO ../tb/agent/axi_lite_driver.sv(133) @ 15735000: uvm_test_top.env.agt.driver [AXI_LITE_DRV] READ addr=0x00000014 rdata=0xfffeb860 resp=0x0 ar_delay=1 r_ready_delay=1
UVM_INFO ../tb/agent/axi_lite_monitor.sv(119) @ 15795000: uvm_test_top.env.agt.monitor [AXI_LITE_MON] WRITE addr=0x00000014 data=0xaaaaac06 strb=0xa resp=0x0 order=AXI_LITE_AW_BEFORE_W b_wait=1
UVM_INFO ../tb/env/axi_lite_scoreboard.sv(71) @ 15795000: uvm_test_top.env.scb [AXI_LITE_SCB] Model write: addr=0x00000014 data=0xaaaaac06 strb=0xa
UVM_INFO ../tb/agent/axi_lite_driver.sv(94) @ 15805000: uvm_test_top.env.agt.driver [AXI_LITE_DRV] WRITE addr=0x00000014 data=0xaaaaac06 strb=0xa resp=0x0 aw_delay=1 w_delay=2 b_ready_delay=1
UVM_INFO ../tb/agent/axi_lite_monitor.sv(167) @ 15885000: uvm_test_top.env.agt.monitor [AXI_LITE_MON] READ addr=0x00000014 rdata=0xaafeac60 resp=0x0 r_wait=3
UVM_INFO ../tb/env/axi_lite_scoreboard.sv(113) @ 15885000: uvm_test_top.env.scb [AXI_LITE_SCB] Read match: addr=0x00000014 data=0xaafeac60
UVM_INFO ../tb/agent/axi_lite_driver.sv(133) @ 15895000: uvm_test_top.env.agt.driver [AXI_LITE_DRV] READ addr=0x00000014 rdata=0xaafeac60 resp=0x0 ar_delay=2 r_ready_delay=2
UVM_INFO ../tb/agent/axi_lite_monitor.sv(119) @ 15975000: uvm_test_top.env.agt.monitor [AXI_LITE_MON] WRITE addr=0x00000014 data=0x555553e8 strb=0xb resp=0x0 order=AXI_LITE_AW_BEFORE_W b_wait=2
UVM_INFO ../tb/env/axi_lite_scoreboard.sv(71) @ 15975000: uvm_test_top.env.scb [AXI_LITE_SCB] Model write: addr=0x00000014 data=0x555553e8 strb=0xb
UVM_INFO ../tb/agent/axi_lite_driver.sv(94) @ 15985000: uvm_test_top.env.agt.driver [AXI_LITE_DRV] WRITE addr=0x00000014 data=0x555553e8 strb=0xb resp=0x0 aw_delay=2 w_delay=3 b_ready_delay=2
UVM_INFO ../tb/agent/axi_lite_monitor.sv(167) @ 16085000: uvm_test_top.env.agt.monitor [AXI_LITE_MON] READ addr=0x00000014 rdata=0x55fe53e8 resp=0x0 r_wait=4
UVM_INFO ../tb/env/axi_lite_scoreboard.sv(113) @ 16085000: uvm_test_top.env.scb [AXI_LITE_SCB] Read match: addr=0x00000014 data=0x55fe53e8
UVM_INFO ../tb/agent/axi_lite_driver.sv(133) @ 16095000: uvm_test_top.env.agt.driver [AXI_LITE_DRV] READ addr=0x00000014 rdata=0x55fe53e8 resp=0x0 ar_delay=3 r_ready_delay=3
UVM_INFO ../tb/agent/axi_lite_monitor.sv(119) @ 16185000: uvm_test_top.env.agt.monitor [AXI_LITE_MON] WRITE addr=0x00000014 data=0x123450b2 strb=0xc resp=0x0 order=AXI_LITE_W_BEFORE_AW b_wait=3
UVM_INFO ../tb/env/axi_lite_scoreboard.sv(71) @ 16185000: uvm_test_top.env.scb [AXI_LITE_SCB] Model write: addr=0x00000014 data=0x123450b2 strb=0xc
UVM_INFO ../tb/agent/axi_lite_driver.sv(94) @ 16195000: uvm_test_top.env.agt.driver [AXI_LITE_DRV] WRITE addr=0x00000014 data=0x123450b2 strb=0xc resp=0x0 aw_delay=3 w_delay=0 b_ready_delay=3
UVM_INFO ../tb/agent/axi_lite_monitor.sv(167) @ 16275000: uvm_test_top.env.agt.monitor [AXI_LITE_MON] READ addr=0x00000014 rdata=0x123453e8 resp=0x0 r_wait=5
UVM_INFO ../tb/env/axi_lite_scoreboard.sv(113) @ 16275000: uvm_test_top.env.scb [AXI_LITE_SCB] Read match: addr=0x00000014 data=0x123453e8
UVM_INFO ../tb/agent/axi_lite_driver.sv(133) @ 16285000: uvm_test_top.env.agt.driver [AXI_LITE_DRV] READ addr=0x00000014 rdata=0x123453e8 resp=0x0 ar_delay=0 r_ready_delay=4
