Command: /home/xz974/UVM_Learning/UVM_Learning/AXI_LITE/sim/./simv +UVM_TESTNAME=axi_lite_test -l run.log
Chronologic VCS simulator copyright 1991-2023
Contains Synopsys proprietary information.
Compiler version V-2023.12-SP2-1_Full64; Runtime version V-2023.12-SP2-1_Full64;  Jun 20 01:51 2026
----------------------------------------------------------------
UVM-1.1d.Synopsys
(C) 2007-2013 Mentor Graphics Corporation
(C) 2007-2013 Cadence Design Systems, Inc.
(C) 2006-2013 Synopsys, Inc.
(C) 2011-2013 Cypress Semiconductor Corp.
----------------------------------------------------------------

  ***********       IMPORTANT RELEASE NOTES         ************

  You are using a version of the UVM library that has been compiled
  with `UVM_NO_DEPRECATED undefined.
  See http://www.eda.org/svdb/view.php?id=3313 for more details.

  You are using a version of the UVM library that has been compiled
  with `UVM_OBJECT_MUST_HAVE_CONSTRUCTOR undefined.
  See http://www.eda.org/svdb/view.php?id=3770 for more details.

      (Specify +UVM_NO_RELNOTES to turn off this notice)

UVM_INFO @ 0: reporter [RNTST] Running test axi_lite_test...
UVM_INFO ../tb/agent/axi_lite_monitor.sv(167) @ 95000: uvm_test_top.env.agt.monitor [AXI_LITE_MON] READ addr=0x00000000 rdata=0x00000000 resp=0x0 r_wait=0
UVM_INFO ../tb/env/axi_lite_scoreboard.sv(165) @ 95000: uvm_test_top.env.scb [AXI_LITE_SCB] Read match: addr=0x00000000 data=0x00000000
UVM_INFO ../tb/agent/axi_lite_driver.sv(192) @ 105000: uvm_test_top.env.agt.driver [AXI_LITE_DRV] READ addr=0x00000000 rdata=0x00000000 resp=0x0 ar_delay=0 r_ready_delay=0
UVM_INFO ../tb/agent/axi_lite_monitor.sv(167) @ 165000: uvm_test_top.env.agt.monitor [AXI_LITE_MON] READ addr=0x00000004 rdata=0x00000000 resp=0x0 r_wait=2
UVM_INFO ../tb/env/axi_lite_scoreboard.sv(165) @ 165000: uvm_test_top.env.scb [AXI_LITE_SCB] Read match: addr=0x00000004 data=0x00000000
UVM_INFO ../tb/agent/axi_lite_driver.sv(192) @ 175000: uvm_test_top.env.agt.driver [AXI_LITE_DRV] READ addr=0x00000004 rdata=0x00000000 resp=0x0 ar_delay=1 r_ready_delay=1
UVM_INFO ../tb/agent/axi_lite_monitor.sv(167) @ 255000: uvm_test_top.env.agt.monitor [AXI_LITE_MON] READ addr=0x00000008 rdata=0x00000000 resp=0x0 r_wait=3
UVM_INFO ../tb/env/axi_lite_scoreboard.sv(165) @ 255000: uvm_test_top.env.scb [AXI_LITE_SCB] Read match: addr=0x00000008 data=0x00000000
UVM_INFO ../tb/agent/axi_lite_driver.sv(192) @ 265000: uvm_test_top.env.agt.driver [AXI_LITE_DRV] READ addr=0x00000008 rdata=0x00000000 resp=0x0 ar_delay=2 r_ready_delay=2
UVM_INFO ../tb/agent/axi_lite_monitor.sv(167) @ 335000: uvm_test_top.env.agt.monitor [AXI_LITE_MON] READ addr=0x0000000c rdata=0x00000000 resp=0x0 r_wait=4
UVM_INFO ../tb/env/axi_lite_scoreboard.sv(165) @ 335000: uvm_test_top.env.scb [AXI_LITE_SCB] Read match: addr=0x0000000c data=0x00000000
UVM_INFO ../tb/agent/axi_lite_driver.sv(192) @ 345000: uvm_test_top.env.agt.driver [AXI_LITE_DRV] READ addr=0x0000000c rdata=0x00000000 resp=0x0 ar_delay=0 r_ready_delay=3
UVM_INFO ../tb/agent/axi_lite_monitor.sv(167) @ 385000: uvm_test_top.env.agt.monitor [AXI_LITE_MON] READ addr=0x00000010 rdata=0x00000000 resp=0x0 r_wait=0
UVM_INFO ../tb/env/axi_lite_scoreboard.sv(165) @ 385000: uvm_test_top.env.scb [AXI_LITE_SCB] Read match: addr=0x00000010 data=0x00000000
UVM_INFO ../tb/agent/axi_lite_driver.sv(192) @ 395000: uvm_test_top.env.agt.driver [AXI_LITE_DRV] READ addr=0x00000010 rdata=0x00000000 resp=0x0 ar_delay=1 r_ready_delay=0
UVM_INFO ../tb/agent/axi_lite_monitor.sv(167) @ 465000: uvm_test_top.env.agt.monitor [AXI_LITE_MON] READ addr=0x00000014 rdata=0x00000000 resp=0x0 r_wait=2
UVM_INFO ../tb/env/axi_lite_scoreboard.sv(165) @ 465000: uvm_test_top.env.scb [AXI_LITE_SCB] Read match: addr=0x00000014 data=0x00000000
UVM_INFO ../tb/agent/axi_lite_driver.sv(192) @ 475000: uvm_test_top.env.agt.driver [AXI_LITE_DRV] READ addr=0x00000014 rdata=0x00000000 resp=0x0 ar_delay=2 r_ready_delay=1
UVM_INFO ../tb/agent/axi_lite_monitor.sv(167) @ 535000: uvm_test_top.env.agt.monitor [AXI_LITE_MON] READ addr=0x00000018 rdata=0x00000000 resp=0x0 r_wait=3
UVM_INFO ../tb/env/axi_lite_scoreboard.sv(165) @ 535000: uvm_test_top.env.scb [AXI_LITE_SCB] Read match: addr=0x00000018 data=0x00000000
UVM_INFO ../tb/agent/axi_lite_driver.sv(192) @ 545000: uvm_test_top.env.agt.driver [AXI_LITE_DRV] READ addr=0x00000018 rdata=0x00000000 resp=0x0 ar_delay=0 r_ready_delay=2
UVM_INFO ../tb/agent/axi_lite_monitor.sv(167) @ 625000: uvm_test_top.env.agt.monitor [AXI_LITE_MON] READ addr=0x0000001c rdata=0x00000000 resp=0x0 r_wait=4
UVM_INFO ../tb/env/axi_lite_scoreboard.sv(165) @ 625000: uvm_test_top.env.scb [AXI_LITE_SCB] Read match: addr=0x0000001c data=0x00000000
UVM_INFO ../tb/agent/axi_lite_driver.sv(192) @ 635000: uvm_test_top.env.agt.driver [AXI_LITE_DRV] READ addr=0x0000001c rdata=0x00000000 resp=0x0 ar_delay=1 r_ready_delay=3
UVM_INFO ../tb/agent/axi_lite_monitor.sv(119) @ 675000: uvm_test_top.env.agt.monitor [AXI_LITE_MON] WRITE addr=0x00000000 data=0x00000000 strb=0xf resp=0x0 order=AXI_LITE_AW_BEFORE_W b_wait=0
UVM_INFO ../tb/env/axi_lite_scoreboard.sv(100) @ 675000: uvm_test_top.env.scb [AXI_LITE_SCB] Model write: addr=0x00000000 effective_addr=0x0 data=0x00000000 strb=0xf
UVM_INFO ../tb/agent/axi_lite_driver.sv(119) @ 685000: uvm_test_top.env.agt.driver [AXI_LITE_DRV] WRITE addr=0x00000000 data=0x00000000 strb=0xf resp=0x0 aw_delay=0 w_delay=1 b_ready_delay=0
UVM_INFO ../tb/agent/axi_lite_monitor.sv(167) @ 755000: uvm_test_top.env.agt.monitor [AXI_LITE_MON] READ addr=0x00000000 rdata=0x00000000 resp=0x0 r_wait=3
UVM_INFO ../tb/env/axi_lite_scoreboard.sv(165) @ 755000: uvm_test_top.env.scb [AXI_LITE_SCB] Read match: addr=0x00000000 data=0x00000000
UVM_INFO ../tb/agent/axi_lite_driver.sv(192) @ 765000: uvm_test_top.env.agt.driver [AXI_LITE_DRV] READ addr=0x00000000 rdata=0x00000000 resp=0x0 ar_delay=1 r_ready_delay=2
UVM_INFO ../tb/agent/axi_lite_monitor.sv(119) @ 825000: uvm_test_top.env.agt.monitor [AXI_LITE_MON] WRITE addr=0x00000004 data=0xffffffff strb=0xf resp=0x0 order=AXI_LITE_AW_BEFORE_W b_wait=1
UVM_INFO ../tb/env/axi_lite_scoreboard.sv(100) @ 825000: uvm_test_top.env.scb [AXI_LITE_SCB] Model write: addr=0x00000004 effective_addr=0x4 data=0xffffffff strb=0xf
UVM_INFO ../tb/agent/axi_lite_driver.sv(119) @ 835000: uvm_test_top.env.agt.driver [AXI_LITE_DRV] WRITE addr=0x00000004 data=0xffffffff strb=0xf resp=0x0 aw_delay=1 w_delay=2 b_ready_delay=1
UVM_INFO ../tb/agent/axi_lite_monitor.sv(167) @ 925000: uvm_test_top.env.agt.monitor [AXI_LITE_MON] READ addr=0x00000004 rdata=0xffffffff resp=0x0 r_wait=4
UVM_INFO ../tb/env/axi_lite_scoreboard.sv(165) @ 925000: uvm_test_top.env.scb [AXI_LITE_SCB] Read match: addr=0x00000004 data=0xffffffff
UVM_INFO ../tb/agent/axi_lite_driver.sv(192) @ 935000: uvm_test_top.env.agt.driver [AXI_LITE_DRV] READ addr=0x00000004 rdata=0xffffffff resp=0x0 ar_delay=2 r_ready_delay=3
UVM_INFO ../tb/agent/axi_lite_monitor.sv(119) @ 1005000: uvm_test_top.env.agt.monitor [AXI_LITE_MON] WRITE addr=0x00000008 data=0xaaaaaaaa strb=0xf resp=0x0 order=AXI_LITE_W_BEFORE_AW b_wait=2
UVM_INFO ../tb/env/axi_lite_scoreboard.sv(100) @ 1005000: uvm_test_top.env.scb [AXI_LITE_SCB] Model write: addr=0x00000008 effective_addr=0x8 data=0xaaaaaaaa strb=0xf
UVM_INFO ../tb/agent/axi_lite_driver.sv(119) @ 1015000: uvm_test_top.env.agt.driver [AXI_LITE_DRV] WRITE addr=0x00000008 data=0xaaaaaaaa strb=0xf resp=0x0 aw_delay=2 w_delay=0 b_ready_delay=2
UVM_INFO ../tb/agent/axi_lite_monitor.sv(167) @ 1045000: uvm_test_top.env.agt.monitor [AXI_LITE_MON] READ addr=0x00000008 rdata=0xaaaaaaaa resp=0x0 r_wait=0
UVM_INFO ../tb/env/axi_lite_scoreboard.sv(165) @ 1045000: uvm_test_top.env.scb [AXI_LITE_SCB] Read match: addr=0x00000008 data=0xaaaaaaaa
UVM_INFO ../tb/agent/axi_lite_driver.sv(192) @ 1055000: uvm_test_top.env.agt.driver [AXI_LITE_DRV] READ addr=0x00000008 rdata=0xaaaaaaaa resp=0x0 ar_delay=0 r_ready_delay=0
UVM_INFO ../tb/agent/axi_lite_monitor.sv(119) @ 1125000: uvm_test_top.env.agt.monitor [AXI_LITE_MON] WRITE addr=0x0000000c data=0x55555555 strb=0xf resp=0x0 order=AXI_LITE_AW_BEFORE_W b_wait=3
UVM_INFO ../tb/env/axi_lite_scoreboard.sv(100) @ 1125000: uvm_test_top.env.scb [AXI_LITE_SCB] Model write: addr=0x0000000c effective_addr=0xc data=0x55555555 strb=0xf
UVM_INFO ../tb/agent/axi_lite_driver.sv(119) @ 1135000: uvm_test_top.env.agt.driver [AXI_LITE_DRV] WRITE addr=0x0000000c data=0x55555555 strb=0xf resp=0x0 aw_delay=0 w_delay=1 b_ready_delay=3
UVM_INFO ../tb/agent/axi_lite_monitor.sv(167) @ 1195000: uvm_test_top.env.agt.monitor [AXI_LITE_MON] READ addr=0x0000000c rdata=0x55555555 resp=0x0 r_wait=2
UVM_INFO ../tb/env/axi_lite_scoreboard.sv(165) @ 1195000: uvm_test_top.env.scb [AXI_LITE_SCB] Read match: addr=0x0000000c data=0x55555555
UVM_INFO ../tb/agent/axi_lite_driver.sv(192) @ 1205000: uvm_test_top.env.agt.driver [AXI_LITE_DRV] READ addr=0x0000000c rdata=0x55555555 resp=0x0 ar_delay=1 r_ready_delay=1
UVM_INFO ../tb/agent/axi_lite_monitor.sv(119) @ 1255000: uvm_test_top.env.agt.monitor [AXI_LITE_MON] WRITE addr=0x00000010 data=0x12345678 strb=0xf resp=0x0 order=AXI_LITE_AW_BEFORE_W b_wait=0
UVM_INFO ../tb/env/axi_lite_scoreboard.sv(100) @ 1255000: uvm_test_top.env.scb [AXI_LITE_SCB] Model write: addr=0x00000010 effective_addr=0x10 data=0x12345678 strb=0xf
UVM_INFO ../tb/agent/axi_lite_driver.sv(119) @ 1265000: uvm_test_top.env.agt.driver [AXI_LITE_DRV] WRITE addr=0x00000010 data=0x12345678 strb=0xf resp=0x0 aw_delay=1 w_delay=2 b_ready_delay=0
UVM_INFO ../tb/agent/axi_lite_monitor.sv(167) @ 1345000: uvm_test_top.env.agt.monitor [AXI_LITE_MON] READ addr=0x00000010 rdata=0x12345678 resp=0x0 r_wait=3
UVM_INFO ../tb/env/axi_lite_scoreboard.sv(165) @ 1345000: uvm_test_top.env.scb [AXI_LITE_SCB] Read match: addr=0x00000010 data=0x12345678
UVM_INFO ../tb/agent/axi_lite_driver.sv(192) @ 1355000: uvm_test_top.env.agt.driver [AXI_LITE_DRV] READ addr=0x00000010 rdata=0x12345678 resp=0x0 ar_delay=2 r_ready_delay=2
UVM_INFO ../tb/agent/axi_lite_monitor.sv(119) @ 1415000: uvm_test_top.env.agt.monitor [AXI_LITE_MON] WRITE addr=0x00000014 data=0xcafebeef strb=0xf resp=0x0 order=AXI_LITE_W_BEFORE_AW b_wait=1
UVM_INFO ../tb/env/axi_lite_scoreboard.sv(100) @ 1415000: uvm_test_top.env.scb [AXI_LITE_SCB] Model write: addr=0x00000014 effective_addr=0x14 data=0xcafebeef strb=0xf
UVM_INFO ../tb/agent/axi_lite_driver.sv(119) @ 1425000: uvm_test_top.env.agt.driver [AXI_LITE_DRV] WRITE addr=0x00000014 data=0xcafebeef strb=0xf resp=0x0 aw_delay=2 w_delay=0 b_ready_delay=1
UVM_INFO ../tb/agent/axi_lite_monitor.sv(167) @ 1495000: uvm_test_top.env.agt.monitor [AXI_LITE_MON] READ addr=0x00000014 rdata=0xcafebeef resp=0x0 r_wait=4
UVM_INFO ../tb/env/axi_lite_scoreboard.sv(165) @ 1495000: uvm_test_top.env.scb [AXI_LITE_SCB] Read match: addr=0x00000014 data=0xcafebeef
UVM_INFO ../tb/agent/axi_lite_driver.sv(192) @ 1505000: uvm_test_top.env.agt.driver [AXI_LITE_DRV] READ addr=0x00000014 rdata=0xcafebeef resp=0x0 ar_delay=0 r_ready_delay=3
UVM_INFO ../tb/agent/axi_lite_monitor.sv(119) @ 1565000: uvm_test_top.env.agt.monitor [AXI_LITE_MON] WRITE addr=0x00000018 data=0x00000000 strb=0xf resp=0x0 order=AXI_LITE_AW_BEFORE_W b_wait=2
UVM_INFO ../tb/env/axi_lite_scoreboard.sv(100) @ 1565000: uvm_test_top.env.scb [AXI_LITE_SCB] Model write: addr=0x00000018 effective_addr=0x18 data=0x00000000 strb=0xf
UVM_INFO ../tb/agent/axi_lite_driver.sv(119) @ 1575000: uvm_test_top.env.agt.driver [AXI_LITE_DRV] WRITE addr=0x00000018 data=0x00000000 strb=0xf resp=0x0 aw_delay=0 w_delay=1 b_ready_delay=2
UVM_INFO ../tb/agent/axi_lite_monitor.sv(167) @ 1615000: uvm_test_top.env.agt.monitor [AXI_LITE_MON] READ addr=0x00000018 rdata=0x00000000 resp=0x0 r_wait=0
UVM_INFO ../tb/env/axi_lite_scoreboard.sv(165) @ 1615000: uvm_test_top.env.scb [AXI_LITE_SCB] Read match: addr=0x00000018 data=0x00000000
UVM_INFO ../tb/agent/axi_lite_driver.sv(192) @ 1625000: uvm_test_top.env.agt.driver [AXI_LITE_DRV] READ addr=0x00000018 rdata=0x00000000 resp=0x0 ar_delay=1 r_ready_delay=0
UVM_INFO ../tb/agent/axi_lite_monitor.sv(119) @ 1705000: uvm_test_top.env.agt.monitor [AXI_LITE_MON] WRITE addr=0x0000001c data=0xffffffff strb=0xf resp=0x0 order=AXI_LITE_AW_BEFORE_W b_wait=3
UVM_INFO ../tb/env/axi_lite_scoreboard.sv(100) @ 1705000: uvm_test_top.env.scb [AXI_LITE_SCB] Model write: addr=0x0000001c effective_addr=0x1c data=0xffffffff strb=0xf
UVM_INFO ../tb/agent/axi_lite_driver.sv(119) @ 1715000: uvm_test_top.env.agt.driver [AXI_LITE_DRV] WRITE addr=0x0000001c data=0xffffffff strb=0xf resp=0x0 aw_delay=1 w_delay=2 b_ready_delay=3
UVM_INFO ../tb/agent/axi_lite_monitor.sv(167) @ 1785000: uvm_test_top.env.agt.monitor [AXI_LITE_MON] READ addr=0x0000001c rdata=0xffffffff resp=0x0 r_wait=2
UVM_INFO ../tb/env/axi_lite_scoreboard.sv(165) @ 1785000: uvm_test_top.env.scb [AXI_LITE_SCB] Read match: addr=0x0000001c data=0xffffffff
UVM_INFO ../tb/agent/axi_lite_driver.sv(192) @ 1795000: uvm_test_top.env.agt.driver [AXI_LITE_DRV] READ addr=0x0000001c rdata=0xffffffff resp=0x0 ar_delay=2 r_ready_delay=1
UVM_INFO ../tb/agent/axi_lite_monitor.sv(119) @ 1845000: uvm_test_top.env.agt.monitor [AXI_LITE_MON] WRITE addr=0x00000000 data=0x00000110 strb=0x1 resp=0x0 order=AXI_LITE_AW_W_SAME b_wait=2
UVM_INFO ../tb/env/axi_lite_scoreboard.sv(100) @ 1845000: uvm_test_top.env.scb [AXI_LITE_SCB] Model write: addr=0x00000000 effective_addr=0x0 data=0x00000110 strb=0x1
UVM_INFO ../tb/agent/axi_lite_driver.sv(119) @ 1855000: uvm_test_top.env.agt.driver [AXI_LITE_DRV] WRITE addr=0x00000000 data=0x00000110 strb=0x1 resp=0x0 aw_delay=0 w_delay=0 b_ready_delay=2
UVM_INFO ../tb/agent/axi_lite_monitor.sv(167) @ 1935000: uvm_test_top.env.agt.monitor [AXI_LITE_MON] READ addr=0x00000000 rdata=0x00000010 resp=0x0 r_wait=4
UVM_INFO ../tb/env/axi_lite_scoreboard.sv(165) @ 1935000: uvm_test_top.env.scb [AXI_LITE_SCB] Read match: addr=0x00000000 data=0x00000010
UVM_INFO ../tb/agent/axi_lite_driver.sv(192) @ 1945000: uvm_test_top.env.agt.driver [AXI_LITE_DRV] READ addr=0x00000000 rdata=0x00000010 resp=0x0 ar_delay=1 r_ready_delay=3
UVM_INFO ../tb/agent/axi_lite_monitor.sv(119) @ 2015000: uvm_test_top.env.agt.monitor [AXI_LITE_MON] WRITE addr=0x00000000 data=0xfffffedc strb=0x2 resp=0x0 order=AXI_LITE_AW_W_SAME b_wait=3
UVM_INFO ../tb/env/axi_lite_scoreboard.sv(100) @ 2015000: uvm_test_top.env.scb [AXI_LITE_SCB] Model write: addr=0x00000000 effective_addr=0x0 data=0xfffffedc strb=0x2
UVM_INFO ../tb/agent/axi_lite_driver.sv(119) @ 2025000: uvm_test_top.env.agt.driver [AXI_LITE_DRV] WRITE addr=0x00000000 data=0xfffffedc strb=0x2 resp=0x0 aw_delay=1 w_delay=1 b_ready_delay=3
UVM_INFO ../tb/agent/axi_lite_monitor.sv(167) @ 2125000: uvm_test_top.env.agt.monitor [AXI_LITE_MON] READ addr=0x00000000 rdata=0x0000fe10 resp=0x0 r_wait=5
UVM_INFO ../tb/env/axi_lite_scoreboard.sv(165) @ 2125000: uvm_test_top.env.scb [AXI_LITE_SCB] Read match: addr=0x00000000 data=0x0000fe10
UVM_INFO ../tb/agent/axi_lite_driver.sv(192) @ 2135000: uvm_test_top.env.agt.driver [AXI_LITE_DRV] READ addr=0x00000000 rdata=0x0000fe10 resp=0x0 ar_delay=2 r_ready_delay=4
UVM_INFO ../tb/agent/axi_lite_monitor.sv(119) @ 2225000: uvm_test_top.env.agt.monitor [AXI_LITE_MON] WRITE addr=0x00000000 data=0xaaaaab98 strb=0x3 resp=0x0 order=AXI_LITE_AW_W_SAME b_wait=4
UVM_INFO ../tb/env/axi_lite_scoreboard.sv(100) @ 2225000: uvm_test_top.env.scb [AXI_LITE_SCB] Model write: addr=0x00000000 effective_addr=0x0 data=0xaaaaab98 strb=0x3
UVM_INFO ../tb/agent/axi_lite_driver.sv(119) @ 2235000: uvm_test_top.env.agt.driver [AXI_LITE_DRV] WRITE addr=0x00000000 data=0xaaaaab98 strb=0x3 resp=0x0 aw_delay=2 w_delay=2 b_ready_delay=4
UVM_INFO ../tb/agent/axi_lite_monitor.sv(167) @ 2295000: uvm_test_top.env.agt.monitor [AXI_LITE_MON] READ addr=0x00000000 rdata=0x0000ab98 resp=0x0 r_wait=0
UVM_INFO ../tb/env/axi_lite_scoreboard.sv(165) @ 2295000: uvm_test_top.env.scb [AXI_LITE_SCB] Read match: addr=0x00000000 data=0x0000ab98
UVM_INFO ../tb/agent/axi_lite_driver.sv(192) @ 2305000: uvm_test_top.env.agt.driver [AXI_LITE_DRV] READ addr=0x00000000 rdata=0x0000ab98 resp=0x0 ar_delay=3 r_ready_delay=0
UVM_INFO ../tb/agent/axi_lite_monitor.sv(119) @ 2365000: uvm_test_top.env.agt.monitor [AXI_LITE_MON] WRITE addr=0x00000000 data=0x55555410 strb=0x4 resp=0x0 order=AXI_LITE_AW_W_SAME b_wait=0
UVM_INFO ../tb/env/axi_lite_scoreboard.sv(100) @ 2365000: uvm_test_top.env.scb [AXI_LITE_SCB] Model write: addr=0x00000000 effective_addr=0x0 data=0x55555410 strb=0x4
UVM_INFO ../tb/agent/axi_lite_driver.sv(119) @ 2375000: uvm_test_top.env.agt.driver [AXI_LITE_DRV] WRITE addr=0x00000000 data=0x55555410 strb=0x4 resp=0x0 aw_delay=3 w_delay=3 b_ready_delay=0
UVM_INFO ../tb/agent/axi_lite_monitor.sv(167) @ 2425000: uvm_test_top.env.agt.monitor [AXI_LITE_MON] READ addr=0x00000000 rdata=0x0055ab98 resp=0x0 r_wait=2
UVM_INFO ../tb/env/axi_lite_scoreboard.sv(165) @ 2425000: uvm_test_top.env.scb [AXI_LITE_SCB] Read match: addr=0x00000000 data=0x0055ab98
UVM_INFO ../tb/agent/axi_lite_driver.sv(192) @ 2435000: uvm_test_top.env.agt.driver [AXI_LITE_DRV] READ addr=0x00000000 rdata=0x0055ab98 resp=0x0 ar_delay=0 r_ready_delay=1
UVM_INFO ../tb/agent/axi_lite_monitor.sv(119) @ 2475000: uvm_test_top.env.agt.monitor [AXI_LITE_MON] WRITE addr=0x00000000 data=0x1234572c strb=0x5 resp=0x0 order=AXI_LITE_AW_W_SAME b_wait=1
UVM_INFO ../tb/env/axi_lite_scoreboard.sv(100) @ 2475000: uvm_test_top.env.scb [AXI_LITE_SCB] Model write: addr=0x00000000 effective_addr=0x0 data=0x1234572c strb=0x5
UVM_INFO ../tb/agent/axi_lite_driver.sv(119) @ 2485000: uvm_test_top.env.agt.driver [AXI_LITE_DRV] WRITE addr=0x00000000 data=0x1234572c strb=0x5 resp=0x0 aw_delay=0 w_delay=0 b_ready_delay=1
UVM_INFO ../tb/agent/axi_lite_monitor.sv(167) @ 2555000: uvm_test_top.env.agt.monitor [AXI_LITE_MON] READ addr=0x00000000 rdata=0x0034ab2c resp=0x0 r_wait=3
UVM_INFO ../tb/env/axi_lite_scoreboard.sv(165) @ 2555000: uvm_test_top.env.scb [AXI_LITE_SCB] Read match: addr=0x00000000 data=0x0034ab2c
UVM_INFO ../tb/agent/axi_lite_driver.sv(192) @ 2565000: uvm_test_top.env.agt.driver [AXI_LITE_DRV] READ addr=0x00000000 rdata=0x0034ab2c resp=0x0 ar_delay=1 r_ready_delay=2
UVM_INFO ../tb/agent/axi_lite_monitor.sv(119) @ 2625000: uvm_test_top.env.agt.monitor [AXI_LITE_MON] WRITE addr=0x00000000 data=0xcafebf88 strb=0x6 resp=0x0 order=AXI_LITE_AW_W_SAME b_wait=2
UVM_INFO ../tb/env/axi_lite_scoreboard.sv(100) @ 2625000: uvm_test_top.env.scb [AXI_LITE_SCB] Model write: addr=0x00000000 effective_addr=0x0 data=0xcafebf88 strb=0x6
UVM_INFO ../tb/agent/axi_lite_driver.sv(119) @ 2635000: uvm_test_top.env.agt.driver [AXI_LITE_DRV] WRITE addr=0x00000000 data=0xcafebf88 strb=0x6 resp=0x0 aw_delay=1 w_delay=1 b_ready_delay=2
UVM_INFO ../tb/agent/axi_lite_monitor.sv(167) @ 2725000: uvm_test_top.env.agt.monitor [AXI_LITE_MON] READ addr=0x00000000 rdata=0x00febf2c resp=0x0 r_wait=4
UVM_INFO ../tb/env/axi_lite_scoreboard.sv(165) @ 2725000: uvm_test_top.env.scb [AXI_LITE_SCB] Read match: addr=0x00000000 data=0x00febf2c
UVM_INFO ../tb/agent/axi_lite_driver.sv(192) @ 2735000: uvm_test_top.env.agt.driver [AXI_LITE_DRV] READ addr=0x00000000 rdata=0x00febf2c resp=0x0 ar_delay=2 r_ready_delay=3
UVM_INFO ../tb/agent/axi_lite_monitor.sv(119) @ 2815000: uvm_test_top.env.agt.monitor [AXI_LITE_MON] WRITE addr=0x00000000 data=0x00000176 strb=0x7 resp=0x0 order=AXI_LITE_AW_W_SAME b_wait=3
UVM_INFO ../tb/env/axi_lite_scoreboard.sv(100) @ 2815000: uvm_test_top.env.scb [AXI_LITE_SCB] Model write: addr=0x00000000 effective_addr=0x0 data=0x00000176 strb=0x7
UVM_INFO ../tb/agent/axi_lite_driver.sv(119) @ 2825000: uvm_test_top.env.agt.driver [AXI_LITE_DRV] WRITE addr=0x00000000 data=0x00000176 strb=0x7 resp=0x0 aw_delay=2 w_delay=2 b_ready_delay=3
UVM_INFO ../tb/agent/axi_lite_monitor.sv(167) @ 2935000: uvm_test_top.env.agt.monitor [AXI_LITE_MON] READ addr=0x00000000 rdata=0x00000176 resp=0x0 r_wait=5
UVM_INFO ../tb/env/axi_lite_scoreboard.sv(165) @ 2935000: uvm_test_top.env.scb [AXI_LITE_SCB] Read match: addr=0x00000000 data=0x00000176
UVM_INFO ../tb/agent/axi_lite_driver.sv(192) @ 2945000: uvm_test_top.env.agt.driver [AXI_LITE_DRV] READ addr=0x00000000 rdata=0x00000176 resp=0x0 ar_delay=3 r_ready_delay=4
UVM_INFO ../tb/agent/axi_lite_monitor.sv(119) @ 3045000: uvm_test_top.env.agt.monitor [AXI_LITE_MON] WRITE addr=0x00000000 data=0xfffffe76 strb=0x8 resp=0x0 order=AXI_LITE_AW_W_SAME b_wait=4
UVM_INFO ../tb/env/axi_lite_scoreboard.sv(100) @ 3045000: uvm_test_top.env.scb [AXI_LITE_SCB] Model write: addr=0x00000000 effective_addr=0x0 data=0xfffffe76 strb=0x8
UVM_INFO ../tb/agent/axi_lite_driver.sv(119) @ 3055000: uvm_test_top.env.agt.driver [AXI_LITE_DRV] WRITE addr=0x00000000 data=0xfffffe76 strb=0x8 resp=0x0 aw_delay=3 w_delay=3 b_ready_delay=4
UVM_INFO ../tb/agent/axi_lite_monitor.sv(167) @ 3085000: uvm_test_top.env.agt.monitor [AXI_LITE_MON] READ addr=0x00000000 rdata=0xff000176 resp=0x0 r_wait=0
UVM_INFO ../tb/env/axi_lite_scoreboard.sv(165) @ 3085000: uvm_test_top.env.scb [AXI_LITE_SCB] Read match: addr=0x00000000 data=0xff000176
UVM_INFO ../tb/agent/axi_lite_driver.sv(192) @ 3095000: uvm_test_top.env.agt.driver [AXI_LITE_DRV] READ addr=0x00000000 rdata=0xff000176 resp=0x0 ar_delay=0 r_ready_delay=0
UVM_INFO ../tb/agent/axi_lite_monitor.sv(119) @ 3125000: uvm_test_top.env.agt.monitor [AXI_LITE_MON] WRITE addr=0x00000000 data=0xaaaaab32 strb=0x9 resp=0x0 order=AXI_LITE_AW_W_SAME b_wait=0
UVM_INFO ../tb/env/axi_lite_scoreboard.sv(100) @ 3125000: uvm_test_top.env.scb [AXI_LITE_SCB] Model write: addr=0x00000000 effective_addr=0x0 data=0xaaaaab32 strb=0x9
UVM_INFO ../tb/agent/axi_lite_driver.sv(119) @ 3135000: uvm_test_top.env.agt.driver [AXI_LITE_DRV] WRITE addr=0x00000000 data=0xaaaaab32 strb=0x9 resp=0x0 aw_delay=0 w_delay=0 b_ready_delay=0
UVM_INFO ../tb/agent/axi_lite_monitor.sv(167) @ 3195000: uvm_test_top.env.agt.monitor [AXI_LITE_MON] READ addr=0x00000000 rdata=0xaa000132 resp=0x0 r_wait=2
UVM_INFO ../tb/env/axi_lite_scoreboard.sv(165) @ 3195000: uvm_test_top.env.scb [AXI_LITE_SCB] Read match: addr=0x00000000 data=0xaa000132
UVM_INFO ../tb/agent/axi_lite_driver.sv(192) @ 3205000: uvm_test_top.env.agt.driver [AXI_LITE_DRV] READ addr=0x00000000 rdata=0xaa000132 resp=0x0 ar_delay=1 r_ready_delay=1
UVM_INFO ../tb/agent/axi_lite_monitor.sv(119) @ 3255000: uvm_test_top.env.agt.monitor [AXI_LITE_MON] WRITE addr=0x00000000 data=0x555554fe strb=0xa resp=0x0 order=AXI_LITE_AW_W_SAME b_wait=1
UVM_INFO ../tb/env/axi_lite_scoreboard.sv(100) @ 3255000: uvm_test_top.env.scb [AXI_LITE_SCB] Model write: addr=0x00000000 effective_addr=0x0 data=0x555554fe strb=0xa
UVM_INFO ../tb/agent/axi_lite_driver.sv(119) @ 3265000: uvm_test_top.env.agt.driver [AXI_LITE_DRV] WRITE addr=0x00000000 data=0x555554fe strb=0xa resp=0x0 aw_delay=1 w_delay=1 b_ready_delay=1
UVM_INFO ../tb/agent/axi_lite_monitor.sv(167) @ 3345000: uvm_test_top.env.agt.monitor [AXI_LITE_MON] READ addr=0x00000000 rdata=0x55005432 resp=0x0 r_wait=3
UVM_INFO ../tb/env/axi_lite_scoreboard.sv(165) @ 3345000: uvm_test_top.env.scb [AXI_LITE_SCB] Read match: addr=0x00000000 data=0x55005432
UVM_INFO ../tb/agent/axi_lite_driver.sv(192) @ 3355000: uvm_test_top.env.agt.driver [AXI_LITE_DRV] READ addr=0x00000000 rdata=0x55005432 resp=0x0 ar_delay=2 r_ready_delay=2
UVM_INFO ../tb/agent/axi_lite_monitor.sv(119) @ 3425000: uvm_test_top.env.agt.monitor [AXI_LITE_MON] WRITE addr=0x00000000 data=0x123457c2 strb=0xb resp=0x0 order=AXI_LITE_AW_W_SAME b_wait=2
UVM_INFO ../tb/env/axi_lite_scoreboard.sv(100) @ 3425000: uvm_test_top.env.scb [AXI_LITE_SCB] Model write: addr=0x00000000 effective_addr=0x0 data=0x123457c2 strb=0xb
UVM_INFO ../tb/agent/axi_lite_driver.sv(119) @ 3435000: uvm_test_top.env.agt.driver [AXI_LITE_DRV] WRITE addr=0x00000000 data=0x123457c2 strb=0xb resp=0x0 aw_delay=2 w_delay=2 b_ready_delay=2
UVM_INFO ../tb/agent/axi_lite_monitor.sv(167) @ 3535000: uvm_test_top.env.agt.monitor [AXI_LITE_MON] READ addr=0x00000000 rdata=0x120057c2 resp=0x0 r_wait=4
UVM_INFO ../tb/env/axi_lite_scoreboard.sv(165) @ 3535000: uvm_test_top.env.scb [AXI_LITE_SCB] Read match: addr=0x00000000 data=0x120057c2
UVM_INFO ../tb/agent/axi_lite_driver.sv(192) @ 3545000: uvm_test_top.env.agt.driver [AXI_LITE_DRV] READ addr=0x00000000 rdata=0x120057c2 resp=0x0 ar_delay=3 r_ready_delay=3
UVM_INFO ../tb/agent/axi_lite_monitor.sv(119) @ 3635000: uvm_test_top.env.agt.monitor [AXI_LITE_MON] WRITE addr=0x00000000 data=0xcafebf22 strb=0xc resp=0x0 order=AXI_LITE_AW_W_SAME b_wait=3
UVM_INFO ../tb/env/axi_lite_scoreboard.sv(100) @ 3635000: uvm_test_top.env.scb [AXI_LITE_SCB] Model write: addr=0x00000000 effective_addr=0x0 data=0xcafebf22 strb=0xc
UVM_INFO ../tb/agent/axi_lite_driver.sv(119) @ 3645000: uvm_test_top.env.agt.driver [AXI_LITE_DRV] WRITE addr=0x00000000 data=0xcafebf22 strb=0xc resp=0x0 aw_delay=3 w_delay=3 b_ready_delay=3
UVM_INFO ../tb/agent/axi_lite_monitor.sv(167) @ 3725000: uvm_test_top.env.agt.monitor [AXI_LITE_MON] READ addr=0x00000000 rdata=0xcafe57c2 resp=0x0 r_wait=5
UVM_INFO ../tb/env/axi_lite_scoreboard.sv(165) @ 3725000: uvm_test_top.env.scb [AXI_LITE_SCB] Read match: addr=0x00000000 data=0xcafe57c2
UVM_INFO ../tb/agent/axi_lite_driver.sv(192) @ 3735000: uvm_test_top.env.agt.driver [AXI_LITE_DRV] READ addr=0x00000000 rdata=0xcafe57c2 resp=0x0 ar_delay=0 r_ready_delay=4
UVM_INFO ../tb/agent/axi_lite_monitor.sv(119) @ 3805000: uvm_test_top.env.agt.monitor [AXI_LITE_MON] WRITE addr=0x00000000 data=0x000001dc strb=0xd resp=0x0 order=AXI_LITE_AW_W_SAME b_wait=4
UVM_INFO ../tb/env/axi_lite_scoreboard.sv(100) @ 3805000: uvm_test_top.env.scb [AXI_LITE_SCB] Model write: addr=0x00000000 effective_addr=0x0 data=0x000001dc strb=0xd
UVM_INFO ../tb/agent/axi_lite_driver.sv(119) @ 3815000: uvm_test_top.env.agt.driver [AXI_LITE_DRV] WRITE addr=0x00000000 data=0x000001dc strb=0xd resp=0x0 aw_delay=0 w_delay=0 b_ready_delay=4
UVM_INFO ../tb/agent/axi_lite_monitor.sv(167) @ 3855000: uvm_test_top.env.agt.monitor [AXI_LITE_MON] READ addr=0x00000000 rdata=0x000057dc resp=0x0 r_wait=0
UVM_INFO ../tb/env/axi_lite_scoreboard.sv(165) @ 3855000: uvm_test_top.env.scb [AXI_LITE_SCB] Read match: addr=0x00000000 data=0x000057dc
UVM_INFO ../tb/agent/axi_lite_driver.sv(192) @ 3865000: uvm_test_top.env.agt.driver [AXI_LITE_DRV] READ addr=0x00000000 rdata=0x000057dc resp=0x0 ar_delay=1 r_ready_delay=0
UVM_INFO ../tb/agent/axi_lite_monitor.sv(119) @ 3905000: uvm_test_top.env.agt.monitor [AXI_LITE_MON] WRITE addr=0x00000000 data=0xfffffe10 strb=0xe resp=0x0 order=AXI_LITE_AW_W_SAME b_wait=0
UVM_INFO ../tb/env/axi_lite_scoreboard.sv(100) @ 3905000: uvm_test_top.env.scb [AXI_LITE_SCB] Model write: addr=0x00000000 effective_addr=0x0 data=0xfffffe10 strb=0xe
UVM_INFO ../tb/agent/axi_lite_driver.sv(119) @ 3915000: uvm_test_top.env.agt.driver [AXI_LITE_DRV] WRITE addr=0x00000000 data=0xfffffe10 strb=0xe resp=0x0 aw_delay=1 w_delay=1 b_ready_delay=0
UVM_INFO ../tb/agent/axi_lite_monitor.sv(167) @ 3985000: uvm_test_top.env.agt.monitor [AXI_LITE_MON] READ addr=0x00000000 rdata=0xfffffedc resp=0x0 r_wait=2
UVM_INFO ../tb/env/axi_lite_scoreboard.sv(165) @ 3985000: uvm_test_top.env.scb [AXI_LITE_SCB] Read match: addr=0x00000000 data=0xfffffedc
UVM_INFO ../tb/agent/axi_lite_driver.sv(192) @ 3995000: uvm_test_top.env.agt.driver [AXI_LITE_DRV] READ addr=0x00000000 rdata=0xfffffedc resp=0x0 ar_delay=2 r_ready_delay=1
UVM_INFO ../tb/agent/axi_lite_monitor.sv(119) @ 4055000: uvm_test_top.env.agt.monitor [AXI_LITE_MON] WRITE addr=0x00000000 data=0xaaaaab54 strb=0xf resp=0x0 order=AXI_LITE_AW_W_SAME b_wait=1
UVM_INFO ../tb/env/axi_lite_scoreboard.sv(100) @ 4055000: uvm_test_top.env.scb [AXI_LITE_SCB] Model write: addr=0x00000000 effective_addr=0x0 data=0xaaaaab54 strb=0xf
UVM_INFO ../tb/agent/axi_lite_driver.sv(119) @ 4065000: uvm_test_top.env.agt.driver [AXI_LITE_DRV] WRITE addr=0x00000000 data=0xaaaaab54 strb=0xf resp=0x0 aw_delay=2 w_delay=2 b_ready_delay=1
UVM_INFO ../tb/agent/axi_lite_monitor.sv(167) @ 4155000: uvm_test_top.env.agt.monitor [AXI_LITE_MON] READ addr=0x00000000 rdata=0xaaaaab54 resp=0x0 r_wait=3
UVM_INFO ../tb/env/axi_lite_scoreboard.sv(165) @ 4155000: uvm_test_top.env.scb [AXI_LITE_SCB] Read match: addr=0x00000000 data=0xaaaaab54
UVM_INFO ../tb/agent/axi_lite_driver.sv(192) @ 4165000: uvm_test_top.env.agt.driver [AXI_LITE_DRV] READ addr=0x00000000 rdata=0xaaaaab54 resp=0x0 ar_delay=3 r_ready_delay=2
UVM_INFO ../tb/agent/axi_lite_monitor.sv(119) @ 4225000: uvm_test_top.env.agt.monitor [AXI_LITE_MON] WRITE addr=0x00000004 data=0xfffffdec strb=0x1 resp=0x0 order=AXI_LITE_AW_BEFORE_W b_wait=2
UVM_INFO ../tb/env/axi_lite_scoreboard.sv(100) @ 4225000: uvm_test_top.env.scb [AXI_LITE_SCB] Model write: addr=0x00000004 effective_addr=0x4 data=0xfffffdec strb=0x1
UVM_INFO ../tb/agent/axi_lite_driver.sv(119) @ 4235000: uvm_test_top.env.agt.driver [AXI_LITE_DRV] WRITE addr=0x00000004 data=0xfffffdec strb=0x1 resp=0x0 aw_delay=0 w_delay=1 b_ready_delay=2
UVM_INFO ../tb/agent/axi_lite_monitor.sv(167) @ 4315000: uvm_test_top.env.agt.monitor [AXI_LITE_MON] READ addr=0x00000004 rdata=0xffffffec resp=0x0 r_wait=4
UVM_INFO ../tb/env/axi_lite_scoreboard.sv(165) @ 4315000: uvm_test_top.env.scb [AXI_LITE_SCB] Read match: addr=0x00000004 data=0xffffffec
UVM_INFO ../tb/agent/axi_lite_driver.sv(192) @ 4325000: uvm_test_top.env.agt.driver [AXI_LITE_DRV] READ addr=0x00000004 rdata=0xffffffec resp=0x0 ar_delay=1 r_ready_delay=3
UVM_INFO ../tb/agent/axi_lite_monitor.sv(119) @ 4405000: uvm_test_top.env.agt.monitor [AXI_LITE_MON] WRITE addr=0x00000004 data=0xaaaaa88a strb=0x2 resp=0x0 order=AXI_LITE_AW_BEFORE_W b_wait=3
UVM_INFO ../tb/env/axi_lite_scoreboard.sv(100) @ 4405000: uvm_test_top.env.scb [AXI_LITE_SCB] Model write: addr=0x00000004 effective_addr=0x4 data=0xaaaaa88a strb=0x2
UVM_INFO ../tb/agent/axi_lite_driver.sv(119) @ 4415000: uvm_test_top.env.agt.driver [AXI_LITE_DRV] WRITE addr=0x00000004 data=0xaaaaa88a strb=0x2 resp=0x0 aw_delay=1 w_delay=2 b_ready_delay=3
UVM_INFO ../tb/agent/axi_lite_monitor.sv(167) @ 4515000: uvm_test_top.env.agt.monitor [AXI_LITE_MON] READ addr=0x00000004 rdata=0xffffa8ec resp=0x0 r_wait=5
UVM_INFO ../tb/env/axi_lite_scoreboard.sv(165) @ 4515000: uvm_test_top.env.scb [AXI_LITE_SCB] Read match: addr=0x00000004 data=0xffffa8ec
UVM_INFO ../tb/agent/axi_lite_driver.sv(192) @ 4525000: uvm_test_top.env.agt.driver [AXI_LITE_DRV] READ addr=0x00000004 rdata=0xffffa8ec resp=0x0 ar_delay=2 r_ready_delay=4
UVM_INFO ../tb/agent/axi_lite_monitor.sv(119) @ 4625000: uvm_test_top.env.agt.monitor [AXI_LITE_MON] WRITE addr=0x00000004 data=0x55555764 strb=0x3 resp=0x0 order=AXI_LITE_AW_BEFORE_W b_wait=4
UVM_INFO ../tb/env/axi_lite_scoreboard.sv(100) @ 4625000: uvm_test_top.env.scb [AXI_LITE_SCB] Model write: addr=0x00000004 effective_addr=0x4 data=0x55555764 strb=0x3
UVM_INFO ../tb/agent/axi_lite_driver.sv(119) @ 4635000: uvm_test_top.env.agt.driver [AXI_LITE_DRV] WRITE addr=0x00000004 data=0x55555764 strb=0x3 resp=0x0 aw_delay=2 w_delay=3 b_ready_delay=4
UVM_INFO ../tb/agent/axi_lite_monitor.sv(167) @ 4695000: uvm_test_top.env.agt.monitor [AXI_LITE_MON] READ addr=0x00000004 rdata=0xffff5764 resp=0x0 r_wait=0
UVM_INFO ../tb/env/axi_lite_scoreboard.sv(165) @ 4695000: uvm_test_top.env.scb [AXI_LITE_SCB] Read match: addr=0x00000004 data=0xffff5764
UVM_INFO ../tb/agent/axi_lite_driver.sv(192) @ 4705000: uvm_test_top.env.agt.driver [AXI_LITE_DRV] READ addr=0x00000004 rdata=0xffff5764 resp=0x0 ar_delay=3 r_ready_delay=0
UVM_INFO ../tb/agent/axi_lite_monitor.sv(119) @ 4765000: uvm_test_top.env.agt.monitor [AXI_LITE_MON] WRITE addr=0x00000004 data=0x1234543e strb=0x4 resp=0x0 order=AXI_LITE_W_BEFORE_AW b_wait=0
UVM_INFO ../tb/env/axi_lite_scoreboard.sv(100) @ 4765000: uvm_test_top.env.scb [AXI_LITE_SCB] Model write: addr=0x00000004 effective_addr=0x4 data=0x1234543e strb=0x4
UVM_INFO ../tb/agent/axi_lite_driver.sv(119) @ 4775000: uvm_test_top.env.agt.driver [AXI_LITE_DRV] WRITE addr=0x00000004 data=0x1234543e strb=0x4 resp=0x0 aw_delay=3 w_delay=0 b_ready_delay=0
UVM_INFO ../tb/agent/axi_lite_monitor.sv(167) @ 4825000: uvm_test_top.env.agt.monitor [AXI_LITE_MON] READ addr=0x00000004 rdata=0xff345764 resp=0x0 r_wait=2
UVM_INFO ../tb/env/axi_lite_scoreboard.sv(165) @ 4825000: uvm_test_top.env.scb [AXI_LITE_SCB] Read match: addr=0x00000004 data=0xff345764
UVM_INFO ../tb/agent/axi_lite_driver.sv(192) @ 4835000: uvm_test_top.env.agt.driver [AXI_LITE_DRV] READ addr=0x00000004 rdata=0xff345764 resp=0x0 ar_delay=0 r_ready_delay=1
UVM_INFO ../tb/agent/axi_lite_monitor.sv(119) @ 4885000: uvm_test_top.env.agt.monitor [AXI_LITE_MON] WRITE addr=0x00000004 data=0xcafebcb8 strb=0x5 resp=0x0 order=AXI_LITE_AW_BEFORE_W b_wait=1
UVM_INFO ../tb/env/axi_lite_scoreboard.sv(100) @ 4885000: uvm_test_top.env.scb [AXI_LITE_SCB] Model write: addr=0x00000004 effective_addr=0x4 data=0xcafebcb8 strb=0x5
UVM_INFO ../tb/agent/axi_lite_driver.sv(119) @ 4895000: uvm_test_top.env.agt.driver [AXI_LITE_DRV] WRITE addr=0x00000004 data=0xcafebcb8 strb=0x5 resp=0x0 aw_delay=0 w_delay=1 b_ready_delay=1
UVM_INFO ../tb/agent/axi_lite_monitor.sv(167) @ 4965000: uvm_test_top.env.agt.monitor [AXI_LITE_MON] READ addr=0x00000004 rdata=0xfffe57b8 resp=0x0 r_wait=3
UVM_INFO ../tb/env/axi_lite_scoreboard.sv(165) @ 4965000: uvm_test_top.env.scb [AXI_LITE_SCB] Read match: addr=0x00000004 data=0xfffe57b8
UVM_INFO ../tb/agent/axi_lite_driver.sv(192) @ 4975000: uvm_test_top.env.agt.driver [AXI_LITE_DRV] READ addr=0x00000004 rdata=0xfffe57b8 resp=0x0 ar_delay=1 r_ready_delay=2
UVM_INFO ../tb/agent/axi_lite_monitor.sv(119) @ 5045000: uvm_test_top.env.agt.monitor [AXI_LITE_MON] WRITE addr=0x00000004 data=0x00000264 strb=0x6 resp=0x0 order=AXI_LITE_AW_BEFORE_W b_wait=2
UVM_INFO ../tb/env/axi_lite_scoreboard.sv(100) @ 5045000: uvm_test_top.env.scb [AXI_LITE_SCB] Model write: addr=0x00000004 effective_addr=0x4 data=0x00000264 strb=0x6
UVM_INFO ../tb/agent/axi_lite_driver.sv(119) @ 5055000: uvm_test_top.env.agt.driver [AXI_LITE_DRV] WRITE addr=0x00000004 data=0x00000264 strb=0x6 resp=0x0 aw_delay=1 w_delay=2 b_ready_delay=2
UVM_INFO ../tb/agent/axi_lite_monitor.sv(167) @ 5145000: uvm_test_top.env.agt.monitor [AXI_LITE_MON] READ addr=0x00000004 rdata=0xff0002b8 resp=0x0 r_wait=4
UVM_INFO ../tb/env/axi_lite_scoreboard.sv(165) @ 5145000: uvm_test_top.env.scb [AXI_LITE_SCB] Read match: addr=0x00000004 data=0xff0002b8
UVM_INFO ../tb/agent/axi_lite_driver.sv(192) @ 5155000: uvm_test_top.env.agt.driver [AXI_LITE_DRV] READ addr=0x00000004 rdata=0xff0002b8 resp=0x0 ar_delay=2 r_ready_delay=3
UVM_INFO ../tb/agent/axi_lite_monitor.sv(119) @ 5245000: uvm_test_top.env.agt.monitor [AXI_LITE_MON] WRITE addr=0x00000004 data=0xfffffd8a strb=0x7 resp=0x0 order=AXI_LITE_AW_BEFORE_W b_wait=3
UVM_INFO ../tb/env/axi_lite_scoreboard.sv(100) @ 5245000: uvm_test_top.env.scb [AXI_LITE_SCB] Model write: addr=0x00000004 effective_addr=0x4 data=0xfffffd8a strb=0x7
UVM_INFO ../tb/agent/axi_lite_driver.sv(119) @ 5255000: uvm_test_top.env.agt.driver [AXI_LITE_DRV] WRITE addr=0x00000004 data=0xfffffd8a strb=0x7 resp=0x0 aw_delay=2 w_delay=3 b_ready_delay=3
UVM_INFO ../tb/agent/axi_lite_monitor.sv(167) @ 5365000: uvm_test_top.env.agt.monitor [AXI_LITE_MON] READ addr=0x00000004 rdata=0xfffffd8a resp=0x0 r_wait=5
UVM_INFO ../tb/env/axi_lite_scoreboard.sv(165) @ 5365000: uvm_test_top.env.scb [AXI_LITE_SCB] Read match: addr=0x00000004 data=0xfffffd8a
UVM_INFO ../tb/agent/axi_lite_driver.sv(192) @ 5375000: uvm_test_top.env.agt.driver [AXI_LITE_DRV] READ addr=0x00000004 rdata=0xfffffd8a resp=0x0 ar_delay=3 r_ready_delay=4
UVM_INFO ../tb/agent/axi_lite_monitor.sv(119) @ 5475000: uvm_test_top.env.agt.monitor [AXI_LITE_MON] WRITE addr=0x00000004 data=0xaaaaa820 strb=0x8 resp=0x0 order=AXI_LITE_W_BEFORE_AW b_wait=4
UVM_INFO ../tb/env/axi_lite_scoreboard.sv(100) @ 5475000: uvm_test_top.env.scb [AXI_LITE_SCB] Model write: addr=0x00000004 effective_addr=0x4 data=0xaaaaa820 strb=0x8
UVM_INFO ../tb/agent/axi_lite_driver.sv(119) @ 5485000: uvm_test_top.env.agt.driver [AXI_LITE_DRV] WRITE addr=0x00000004 data=0xaaaaa820 strb=0x8 resp=0x0 aw_delay=3 w_delay=0 b_ready_delay=4
UVM_INFO ../tb/agent/axi_lite_monitor.sv(167) @ 5515000: uvm_test_top.env.agt.monitor [AXI_LITE_MON] READ addr=0x00000004 rdata=0xaafffd8a resp=0x0 r_wait=0
UVM_INFO ../tb/env/axi_lite_scoreboard.sv(165) @ 5515000: uvm_test_top.env.scb [AXI_LITE_SCB] Read match: addr=0x00000004 data=0xaafffd8a
UVM_INFO ../tb/agent/axi_lite_driver.sv(192) @ 5525000: uvm_test_top.env.agt.driver [AXI_LITE_DRV] READ addr=0x00000004 rdata=0xaafffd8a resp=0x0 ar_delay=0 r_ready_delay=0
UVM_INFO ../tb/agent/axi_lite_monitor.sv(119) @ 5565000: uvm_test_top.env.agt.monitor [AXI_LITE_MON] WRITE addr=0x00000004 data=0x555557ce strb=0x9 resp=0x0 order=AXI_LITE_AW_BEFORE_W b_wait=0
UVM_INFO ../tb/env/axi_lite_scoreboard.sv(100) @ 5565000: uvm_test_top.env.scb [AXI_LITE_SCB] Model write: addr=0x00000004 effective_addr=0x4 data=0x555557ce strb=0x9
UVM_INFO ../tb/agent/axi_lite_driver.sv(119) @ 5575000: uvm_test_top.env.agt.driver [AXI_LITE_DRV] WRITE addr=0x00000004 data=0x555557ce strb=0x9 resp=0x0 aw_delay=0 w_delay=1 b_ready_delay=0
UVM_INFO ../tb/agent/axi_lite_monitor.sv(167) @ 5635000: uvm_test_top.env.agt.monitor [AXI_LITE_MON] READ addr=0x00000004 rdata=0x55fffdce resp=0x0 r_wait=2
UVM_INFO ../tb/env/axi_lite_scoreboard.sv(165) @ 5635000: uvm_test_top.env.scb [AXI_LITE_SCB] Read match: addr=0x00000004 data=0x55fffdce
UVM_INFO ../tb/agent/axi_lite_driver.sv(192) @ 5645000: uvm_test_top.env.agt.driver [AXI_LITE_DRV] READ addr=0x00000004 rdata=0x55fffdce resp=0x0 ar_delay=1 r_ready_delay=1
UVM_INFO ../tb/agent/axi_lite_monitor.sv(119) @ 5705000: uvm_test_top.env.agt.monitor [AXI_LITE_MON] WRITE addr=0x00000004 data=0x123454d0 strb=0xa resp=0x0 order=AXI_LITE_AW_BEFORE_W b_wait=1
UVM_INFO ../tb/env/axi_lite_scoreboard.sv(100) @ 5705000: uvm_test_top.env.scb [AXI_LITE_SCB] Model write: addr=0x00000004 effective_addr=0x4 data=0x123454d0 strb=0xa
UVM_INFO ../tb/agent/axi_lite_driver.sv(119) @ 5715000: uvm_test_top.env.agt.driver [AXI_LITE_DRV] WRITE addr=0x00000004 data=0x123454d0 strb=0xa resp=0x0 aw_delay=1 w_delay=2 b_ready_delay=1
UVM_INFO ../tb/agent/axi_lite_monitor.sv(167) @ 5795000: uvm_test_top.env.agt.monitor [AXI_LITE_MON] READ addr=0x00000004 rdata=0x12ff54ce resp=0x0 r_wait=3
UVM_INFO ../tb/env/axi_lite_scoreboard.sv(165) @ 5795000: uvm_test_top.env.scb [AXI_LITE_SCB] Read match: addr=0x00000004 data=0x12ff54ce
UVM_INFO ../tb/agent/axi_lite_driver.sv(192) @ 5805000: uvm_test_top.env.agt.driver [AXI_LITE_DRV] READ addr=0x00000004 rdata=0x12ff54ce resp=0x0 ar_delay=2 r_ready_delay=2
UVM_INFO ../tb/agent/axi_lite_monitor.sv(119) @ 5885000: uvm_test_top.env.agt.monitor [AXI_LITE_MON] WRITE addr=0x00000004 data=0xcafebc56 strb=0xb resp=0x0 order=AXI_LITE_AW_BEFORE_W b_wait=2
UVM_INFO ../tb/env/axi_lite_scoreboard.sv(100) @ 5885000: uvm_test_top.env.scb [AXI_LITE_SCB] Model write: addr=0x00000004 effective_addr=0x4 data=0xcafebc56 strb=0xb
UVM_INFO ../tb/agent/axi_lite_driver.sv(119) @ 5895000: uvm_test_top.env.agt.driver [AXI_LITE_DRV] WRITE addr=0x00000004 data=0xcafebc56 strb=0xb resp=0x0 aw_delay=2 w_delay=3 b_ready_delay=2
UVM_INFO ../tb/agent/axi_lite_monitor.sv(167) @ 5995000: uvm_test_top.env.agt.monitor [AXI_LITE_MON] READ addr=0x00000004 rdata=0xcaffbc56 resp=0x0 r_wait=4
UVM_INFO ../tb/env/axi_lite_scoreboard.sv(165) @ 5995000: uvm_test_top.env.scb [AXI_LITE_SCB] Read match: addr=0x00000004 data=0xcaffbc56
UVM_INFO ../tb/agent/axi_lite_driver.sv(192) @ 6005000: uvm_test_top.env.agt.driver [AXI_LITE_DRV] READ addr=0x00000004 rdata=0xcaffbc56 resp=0x0 ar_delay=3 r_ready_delay=3
UVM_INFO ../tb/agent/axi_lite_monitor.sv(119) @ 6095000: uvm_test_top.env.agt.monitor [AXI_LITE_MON] WRITE addr=0x00000004 data=0x000002ce strb=0xc resp=0x0 order=AXI_LITE_W_BEFORE_AW b_wait=3
UVM_INFO ../tb/env/axi_lite_scoreboard.sv(100) @ 6095000: uvm_test_top.env.scb [AXI_LITE_SCB] Model write: addr=0x00000004 effective_addr=0x4 data=0x000002ce strb=0xc
UVM_INFO ../tb/agent/axi_lite_driver.sv(119) @ 6105000: uvm_test_top.env.agt.driver [AXI_LITE_DRV] WRITE addr=0x00000004 data=0x000002ce strb=0xc resp=0x0 aw_delay=3 w_delay=0 b_ready_delay=3
UVM_INFO ../tb/agent/axi_lite_monitor.sv(167) @ 6185000: uvm_test_top.env.agt.monitor [AXI_LITE_MON] READ addr=0x00000004 rdata=0x0000bc56 resp=0x0 r_wait=5
UVM_INFO ../tb/env/axi_lite_scoreboard.sv(165) @ 6185000: uvm_test_top.env.scb [AXI_LITE_SCB] Read match: addr=0x00000004 data=0x0000bc56
UVM_INFO ../tb/agent/axi_lite_driver.sv(192) @ 6195000: uvm_test_top.env.agt.driver [AXI_LITE_DRV] READ addr=0x00000004 rdata=0x0000bc56 resp=0x0 ar_delay=0 r_ready_delay=4
UVM_INFO ../tb/agent/axi_lite_monitor.sv(119) @ 6275000: uvm_test_top.env.agt.monitor [AXI_LITE_MON] WRITE addr=0x00000004 data=0xfffffd20 strb=0xd resp=0x0 order=AXI_LITE_AW_BEFORE_W b_wait=4
UVM_INFO ../tb/env/axi_lite_scoreboard.sv(100) @ 6275000: uvm_test_top.env.scb [AXI_LITE_SCB] Model write: addr=0x00000004 effective_addr=0x4 data=0xfffffd20 strb=0xd
UVM_INFO ../tb/agent/axi_lite_driver.sv(119) @ 6285000: uvm_test_top.env.agt.driver [AXI_LITE_DRV] WRITE addr=0x00000004 data=0xfffffd20 strb=0xd resp=0x0 aw_delay=0 w_delay=1 b_ready_delay=4
UVM_INFO ../tb/agent/axi_lite_monitor.sv(167) @ 6325000: uvm_test_top.env.agt.monitor [AXI_LITE_MON] READ addr=0x00000004 rdata=0xffffbc20 resp=0x0 r_wait=0
UVM_INFO ../tb/env/axi_lite_scoreboard.sv(165) @ 6325000: uvm_test_top.env.scb [AXI_LITE_SCB] Read match: addr=0x00000004 data=0xffffbc20
UVM_INFO ../tb/agent/axi_lite_driver.sv(192) @ 6335000: uvm_test_top.env.agt.driver [AXI_LITE_DRV] READ addr=0x00000004 rdata=0xffffbc20 resp=0x0 ar_delay=1 r_ready_delay=0
UVM_INFO ../tb/agent/axi_lite_monitor.sv(119) @ 6385000: uvm_test_top.env.agt.monitor [AXI_LITE_MON] WRITE addr=0x00000004 data=0xaaaaa846 strb=0xe resp=0x0 order=AXI_LITE_AW_BEFORE_W b_wait=0
UVM_INFO ../tb/env/axi_lite_scoreboard.sv(100) @ 6385000: uvm_test_top.env.scb [AXI_LITE_SCB] Model write: addr=0x00000004 effective_addr=0x4 data=0xaaaaa846 strb=0xe
UVM_INFO ../tb/agent/axi_lite_driver.sv(119) @ 6395000: uvm_test_top.env.agt.driver [AXI_LITE_DRV] WRITE addr=0x00000004 data=0xaaaaa846 strb=0xe resp=0x0 aw_delay=1 w_delay=2 b_ready_delay=0
UVM_INFO ../tb/agent/axi_lite_monitor.sv(167) @ 6465000: uvm_test_top.env.agt.monitor [AXI_LITE_MON] READ addr=0x00000004 rdata=0xaaaaa820 resp=0x0 r_wait=2
UVM_INFO ../tb/env/axi_lite_scoreboard.sv(165) @ 6465000: uvm_test_top.env.scb [AXI_LITE_SCB] Read match: addr=0x00000004 data=0xaaaaa820
UVM_INFO ../tb/agent/axi_lite_driver.sv(192) @ 6475000: uvm_test_top.env.agt.driver [AXI_LITE_DRV] READ addr=0x00000004 rdata=0xaaaaa820 resp=0x0 ar_delay=2 r_ready_delay=1
UVM_INFO ../tb/agent/axi_lite_monitor.sv(119) @ 6545000: uvm_test_top.env.agt.monitor [AXI_LITE_MON] WRITE addr=0x00000004 data=0x555557a8 strb=0xf resp=0x0 order=AXI_LITE_AW_BEFORE_W b_wait=1
UVM_INFO ../tb/env/axi_lite_scoreboard.sv(100) @ 6545000: uvm_test_top.env.scb [AXI_LITE_SCB] Model write: addr=0x00000004 effective_addr=0x4 data=0x555557a8 strb=0xf
UVM_INFO ../tb/agent/axi_lite_driver.sv(119) @ 6555000: uvm_test_top.env.agt.driver [AXI_LITE_DRV] WRITE addr=0x00000004 data=0x555557a8 strb=0xf resp=0x0 aw_delay=2 w_delay=3 b_ready_delay=1
UVM_INFO ../tb/agent/axi_lite_monitor.sv(167) @ 6645000: uvm_test_top.env.agt.monitor [AXI_LITE_MON] READ addr=0x00000004 rdata=0x555557a8 resp=0x0 r_wait=3
UVM_INFO ../tb/env/axi_lite_scoreboard.sv(165) @ 6645000: uvm_test_top.env.scb [AXI_LITE_SCB] Read match: addr=0x00000004 data=0x555557a8
UVM_INFO ../tb/agent/axi_lite_driver.sv(192) @ 6655000: uvm_test_top.env.agt.driver [AXI_LITE_DRV] READ addr=0x00000004 rdata=0x555557a8 resp=0x0 ar_delay=3 r_ready_delay=2
UVM_INFO ../tb/agent/axi_lite_monitor.sv(119) @ 6725000: uvm_test_top.env.agt.monitor [AXI_LITE_MON] WRITE addr=0x00000008 data=0xaaaaa9b8 strb=0x1 resp=0x0 order=AXI_LITE_AW_BEFORE_W b_wait=2
UVM_INFO ../tb/env/axi_lite_scoreboard.sv(100) @ 6725000: uvm_test_top.env.scb [AXI_LITE_SCB] Model write: addr=0x00000008 effective_addr=0x8 data=0xaaaaa9b8 strb=0x1
UVM_INFO ../tb/agent/axi_lite_driver.sv(119) @ 6735000: uvm_test_top.env.agt.driver [AXI_LITE_DRV] WRITE addr=0x00000008 data=0xaaaaa9b8 strb=0x1 resp=0x0 aw_delay=0 w_delay=2 b_ready_delay=2
UVM_INFO ../tb/agent/axi_lite_monitor.sv(167) @ 6815000: uvm_test_top.env.agt.monitor [AXI_LITE_MON] READ addr=0x00000008 rdata=0xaaaaaab8 resp=0x0 r_wait=4
UVM_INFO ../tb/env/axi_lite_scoreboard.sv(165) @ 6815000: uvm_test_top.env.scb [AXI_LITE_SCB] Read match: addr=0x00000008 data=0xaaaaaab8
UVM_INFO ../tb/agent/axi_lite_driver.sv(192) @ 6825000: uvm_test_top.env.agt.driver [AXI_LITE_DRV] READ addr=0x00000008 rdata=0xaaaaaab8 resp=0x0 ar_delay=1 r_ready_delay=3
UVM_INFO ../tb/agent/axi_lite_monitor.sv(119) @ 6915000: uvm_test_top.env.agt.monitor [AXI_LITE_MON] WRITE addr=0x00000008 data=0x55555674 strb=0x2 resp=0x0 order=AXI_LITE_AW_BEFORE_W b_wait=3
UVM_INFO ../tb/env/axi_lite_scoreboard.sv(100) @ 6915000: uvm_test_top.env.scb [AXI_LITE_SCB] Model write: addr=0x00000008 effective_addr=0x8 data=0x55555674 strb=0x2
UVM_INFO ../tb/agent/axi_lite_driver.sv(119) @ 6925000: uvm_test_top.env.agt.driver [AXI_LITE_DRV] WRITE addr=0x00000008 data=0x55555674 strb=0x2 resp=0x0 aw_delay=1 w_delay=3 b_ready_delay=3
UVM_INFO ../tb/agent/axi_lite_monitor.sv(167) @ 7025000: uvm_test_top.env.agt.monitor [AXI_LITE_MON] READ addr=0x00000008 rdata=0xaaaa56b8 resp=0x0 r_wait=5
UVM_INFO ../tb/env/axi_lite_scoreboard.sv(165) @ 7025000: uvm_test_top.env.scb [AXI_LITE_SCB] Read match: addr=0x00000008 data=0xaaaa56b8
UVM_INFO ../tb/agent/axi_lite_driver.sv(192) @ 7035000: uvm_test_top.env.agt.driver [AXI_LITE_DRV] READ addr=0x00000008 rdata=0xaaaa56b8 resp=0x0 ar_delay=2 r_ready_delay=4
UVM_INFO ../tb/agent/axi_lite_monitor.sv(119) @ 7125000: uvm_test_top.env.agt.monitor [AXI_LITE_MON] WRITE addr=0x00000008 data=0x12345548 strb=0x3 resp=0x0 order=AXI_LITE_W_BEFORE_AW b_wait=4
UVM_INFO ../tb/env/axi_lite_scoreboard.sv(100) @ 7125000: uvm_test_top.env.scb [AXI_LITE_SCB] Model write: addr=0x00000008 effective_addr=0x8 data=0x12345548 strb=0x3
UVM_INFO ../tb/agent/axi_lite_driver.sv(119) @ 7135000: uvm_test_top.env.agt.driver [AXI_LITE_DRV] WRITE addr=0x00000008 data=0x12345548 strb=0x3 resp=0x0 aw_delay=2 w_delay=0 b_ready_delay=4
UVM_INFO ../tb/agent/axi_lite_monitor.sv(167) @ 7195000: uvm_test_top.env.agt.monitor [AXI_LITE_MON] READ addr=0x00000008 rdata=0xaaaa5548 resp=0x0 r_wait=0
UVM_INFO ../tb/env/axi_lite_scoreboard.sv(165) @ 7195000: uvm_test_top.env.scb [AXI_LITE_SCB] Read match: addr=0x00000008 data=0xaaaa5548
UVM_INFO ../tb/agent/axi_lite_driver.sv(192) @ 7205000: uvm_test_top.env.agt.driver [AXI_LITE_DRV] READ addr=0x00000008 rdata=0xaaaa5548 resp=0x0 ar_delay=3 r_ready_delay=0
UVM_INFO ../tb/agent/axi_lite_monitor.sv(119) @ 7265000: uvm_test_top.env.agt.monitor [AXI_LITE_MON] WRITE addr=0x00000008 data=0xcafebda8 strb=0x4 resp=0x0 order=AXI_LITE_W_BEFORE_AW b_wait=0
UVM_INFO ../tb/env/axi_lite_scoreboard.sv(100) @ 7265000: uvm_test_top.env.scb [AXI_LITE_SCB] Model write: addr=0x00000008 effective_addr=0x8 data=0xcafebda8 strb=0x4
UVM_INFO ../tb/agent/axi_lite_driver.sv(119) @ 7275000: uvm_test_top.env.agt.driver [AXI_LITE_DRV] WRITE addr=0x00000008 data=0xcafebda8 strb=0x4 resp=0x0 aw_delay=3 w_delay=1 b_ready_delay=0
UVM_INFO ../tb/agent/axi_lite_monitor.sv(167) @ 7325000: uvm_test_top.env.agt.monitor [AXI_LITE_MON] READ addr=0x00000008 rdata=0xaafe5548 resp=0x0 r_wait=2
UVM_INFO ../tb/env/axi_lite_scoreboard.sv(165) @ 7325000: uvm_test_top.env.scb [AXI_LITE_SCB] Read match: addr=0x00000008 data=0xaafe5548
UVM_INFO ../tb/agent/axi_lite_driver.sv(192) @ 7335000: uvm_test_top.env.agt.driver [AXI_LITE_DRV] READ addr=0x00000008 rdata=0xaafe5548 resp=0x0 ar_delay=0 r_ready_delay=1
UVM_INFO ../tb/agent/axi_lite_monitor.sv(119) @ 7395000: uvm_test_top.env.agt.monitor [AXI_LITE_MON] WRITE addr=0x00000008 data=0x00000356 strb=0x5 resp=0x0 order=AXI_LITE_AW_BEFORE_W b_wait=1
UVM_INFO ../tb/env/axi_lite_scoreboard.sv(100) @ 7395000: uvm_test_top.env.scb [AXI_LITE_SCB] Model write: addr=0x00000008 effective_addr=0x8 data=0x00000356 strb=0x5
UVM_INFO ../tb/agent/axi_lite_driver.sv(119) @ 7405000: uvm_test_top.env.agt.driver [AXI_LITE_DRV] WRITE addr=0x00000008 data=0x00000356 strb=0x5 resp=0x0 aw_delay=0 w_delay=2 b_ready_delay=1
UVM_INFO ../tb/agent/axi_lite_monitor.sv(167) @ 7475000: uvm_test_top.env.agt.monitor [AXI_LITE_MON] READ addr=0x00000008 rdata=0xaa005556 resp=0x0 r_wait=3
UVM_INFO ../tb/env/axi_lite_scoreboard.sv(165) @ 7475000: uvm_test_top.env.scb [AXI_LITE_SCB] Read match: addr=0x00000008 data=0xaa005556
UVM_INFO ../tb/agent/axi_lite_driver.sv(192) @ 7485000: uvm_test_top.env.agt.driver [AXI_LITE_DRV] READ addr=0x00000008 rdata=0xaa005556 resp=0x0 ar_delay=1 r_ready_delay=2
UVM_INFO ../tb/agent/axi_lite_monitor.sv(119) @ 7565000: uvm_test_top.env.agt.monitor [AXI_LITE_MON] WRITE addr=0x00000008 data=0xfffffc9a strb=0x6 resp=0x0 order=AXI_LITE_AW_BEFORE_W b_wait=2
UVM_INFO ../tb/env/axi_lite_scoreboard.sv(100) @ 7565000: uvm_test_top.env.scb [AXI_LITE_SCB] Model write: addr=0x00000008 effective_addr=0x8 data=0xfffffc9a strb=0x6
UVM_INFO ../tb/agent/axi_lite_driver.sv(119) @ 7575000: uvm_test_top.env.agt.driver [AXI_LITE_DRV] WRITE addr=0x00000008 data=0xfffffc9a strb=0x6 resp=0x0 aw_delay=1 w_delay=3 b_ready_delay=2
UVM_INFO ../tb/agent/axi_lite_monitor.sv(167) @ 7665000: uvm_test_top.env.agt.monitor [AXI_LITE_MON] READ addr=0x00000008 rdata=0xaafffc56 resp=0x0 r_wait=4
UVM_INFO ../tb/env/axi_lite_scoreboard.sv(165) @ 7665000: uvm_test_top.env.scb [AXI_LITE_SCB] Read match: addr=0x00000008 data=0xaafffc56
UVM_INFO ../tb/agent/axi_lite_driver.sv(192) @ 7675000: uvm_test_top.env.agt.driver [AXI_LITE_DRV] READ addr=0x00000008 rdata=0xaafffc56 resp=0x0 ar_delay=2 r_ready_delay=3
UVM_INFO ../tb/agent/axi_lite_monitor.sv(119) @ 7755000: uvm_test_top.env.agt.monitor [AXI_LITE_MON] WRITE addr=0x00000008 data=0xaaaaa9de strb=0x7 resp=0x0 order=AXI_LITE_W_BEFORE_AW b_wait=3
UVM_INFO ../tb/env/axi_lite_scoreboard.sv(100) @ 7755000: uvm_test_top.env.scb [AXI_LITE_SCB] Model write: addr=0x00000008 effective_addr=0x8 data=0xaaaaa9de strb=0x7
UVM_INFO ../tb/agent/axi_lite_driver.sv(119) @ 7765000: uvm_test_top.env.agt.driver [AXI_LITE_DRV] WRITE addr=0x00000008 data=0xaaaaa9de strb=0x7 resp=0x0 aw_delay=2 w_delay=0 b_ready_delay=3
UVM_INFO ../tb/agent/axi_lite_monitor.sv(167) @ 7875000: uvm_test_top.env.agt.monitor [AXI_LITE_MON] READ addr=0x00000008 rdata=0xaaaaa9de resp=0x0 r_wait=5
UVM_INFO ../tb/env/axi_lite_scoreboard.sv(165) @ 7875000: uvm_test_top.env.scb [AXI_LITE_SCB] Read match: addr=0x00000008 data=0xaaaaa9de
UVM_INFO ../tb/agent/axi_lite_driver.sv(192) @ 7885000: uvm_test_top.env.agt.driver [AXI_LITE_DRV] READ addr=0x00000008 rdata=0xaaaaa9de resp=0x0 ar_delay=3 r_ready_delay=4
UVM_INFO ../tb/agent/axi_lite_monitor.sv(119) @ 7985000: uvm_test_top.env.agt.monitor [AXI_LITE_MON] WRITE addr=0x00000008 data=0x555556de strb=0x8 resp=0x0 order=AXI_LITE_W_BEFORE_AW b_wait=4
UVM_INFO ../tb/env/axi_lite_scoreboard.sv(100) @ 7985000: uvm_test_top.env.scb [AXI_LITE_SCB] Model write: addr=0x00000008 effective_addr=0x8 data=0x555556de strb=0x8
UVM_INFO ../tb/agent/axi_lite_driver.sv(119) @ 7995000: uvm_test_top.env.agt.driver [AXI_LITE_DRV] WRITE addr=0x00000008 data=0x555556de strb=0x8 resp=0x0 aw_delay=3 w_delay=1 b_ready_delay=4
UVM_INFO ../tb/agent/axi_lite_monitor.sv(167) @ 8025000: uvm_test_top.env.agt.monitor [AXI_LITE_MON] READ addr=0x00000008 rdata=0x55aaa9de resp=0x0 r_wait=0
UVM_INFO ../tb/env/axi_lite_scoreboard.sv(165) @ 8025000: uvm_test_top.env.scb [AXI_LITE_SCB] Read match: addr=0x00000008 data=0x55aaa9de
UVM_INFO ../tb/agent/axi_lite_driver.sv(192) @ 8035000: uvm_test_top.env.agt.driver [AXI_LITE_DRV] READ addr=0x00000008 rdata=0x55aaa9de resp=0x0 ar_delay=0 r_ready_delay=0
UVM_INFO ../tb/agent/axi_lite_monitor.sv(119) @ 8085000: uvm_test_top.env.agt.monitor [AXI_LITE_MON] WRITE addr=0x00000008 data=0x123455e2 strb=0x9 resp=0x0 order=AXI_LITE_AW_BEFORE_W b_wait=0
UVM_INFO ../tb/env/axi_lite_scoreboard.sv(100) @ 8085000: uvm_test_top.env.scb [AXI_LITE_SCB] Model write: addr=0x00000008 effective_addr=0x8 data=0x123455e2 strb=0x9
UVM_INFO ../tb/agent/axi_lite_driver.sv(119) @ 8095000: uvm_test_top.env.agt.driver [AXI_LITE_DRV] WRITE addr=0x00000008 data=0x123455e2 strb=0x9 resp=0x0 aw_delay=0 w_delay=2 b_ready_delay=0
UVM_INFO ../tb/agent/axi_lite_monitor.sv(167) @ 8155000: uvm_test_top.env.agt.monitor [AXI_LITE_MON] READ addr=0x00000008 rdata=0x12aaa9e2 resp=0x0 r_wait=2
UVM_INFO ../tb/env/axi_lite_scoreboard.sv(165) @ 8155000: uvm_test_top.env.scb [AXI_LITE_SCB] Read match: addr=0x00000008 data=0x12aaa9e2
UVM_INFO ../tb/agent/axi_lite_driver.sv(192) @ 8165000: uvm_test_top.env.agt.driver [AXI_LITE_DRV] READ addr=0x00000008 rdata=0x12aaa9e2 resp=0x0 ar_delay=1 r_ready_delay=1
UVM_INFO ../tb/agent/axi_lite_monitor.sv(119) @ 8235000: uvm_test_top.env.agt.monitor [AXI_LITE_MON] WRITE addr=0x00000008 data=0xcafebd46 strb=0xa resp=0x0 order=AXI_LITE_AW_BEFORE_W b_wait=1
UVM_INFO ../tb/env/axi_lite_scoreboard.sv(100) @ 8235000: uvm_test_top.env.scb [AXI_LITE_SCB] Model write: addr=0x00000008 effective_addr=0x8 data=0xcafebd46 strb=0xa
UVM_INFO ../tb/agent/axi_lite_driver.sv(119) @ 8245000: uvm_test_top.env.agt.driver [AXI_LITE_DRV] WRITE addr=0x00000008 data=0xcafebd46 strb=0xa resp=0x0 aw_delay=1 w_delay=3 b_ready_delay=1
UVM_INFO ../tb/agent/axi_lite_monitor.sv(167) @ 8325000: uvm_test_top.env.agt.monitor [AXI_LITE_MON] READ addr=0x00000008 rdata=0xcaaabde2 resp=0x0 r_wait=3
UVM_INFO ../tb/env/axi_lite_scoreboard.sv(165) @ 8325000: uvm_test_top.env.scb [AXI_LITE_SCB] Read match: addr=0x00000008 data=0xcaaabde2
UVM_INFO ../tb/agent/axi_lite_driver.sv(192) @ 8335000: uvm_test_top.env.agt.driver [AXI_LITE_DRV] READ addr=0x00000008 rdata=0xcaaabde2 resp=0x0 ar_delay=2 r_ready_delay=2
UVM_INFO ../tb/agent/axi_lite_monitor.sv(119) @ 8405000: uvm_test_top.env.agt.monitor [AXI_LITE_MON] WRITE addr=0x00000008 data=0x000003b8 strb=0xb resp=0x0 order=AXI_LITE_W_BEFORE_AW b_wait=2
UVM_INFO ../tb/env/axi_lite_scoreboard.sv(100) @ 8405000: uvm_test_top.env.scb [AXI_LITE_SCB] Model write: addr=0x00000008 effective_addr=0x8 data=0x000003b8 strb=0xb
UVM_INFO ../tb/agent/axi_lite_driver.sv(119) @ 8415000: uvm_test_top.env.agt.driver [AXI_LITE_DRV] WRITE addr=0x00000008 data=0x000003b8 strb=0xb resp=0x0 aw_delay=2 w_delay=0 b_ready_delay=2
UVM_INFO ../tb/agent/axi_lite_monitor.sv(167) @ 8515000: uvm_test_top.env.agt.monitor [AXI_LITE_MON] READ addr=0x00000008 rdata=0x00aa03b8 resp=0x0 r_wait=4
UVM_INFO ../tb/env/axi_lite_scoreboard.sv(165) @ 8515000: uvm_test_top.env.scb [AXI_LITE_SCB] Read match: addr=0x00000008 data=0x00aa03b8
UVM_INFO ../tb/agent/axi_lite_driver.sv(192) @ 8525000: uvm_test_top.env.agt.driver [AXI_LITE_DRV] READ addr=0x00000008 rdata=0x00aa03b8 resp=0x0 ar_delay=3 r_ready_delay=3
UVM_INFO ../tb/agent/axi_lite_monitor.sv(119) @ 8615000: uvm_test_top.env.agt.monitor [AXI_LITE_MON] WRITE addr=0x00000008 data=0xfffffc30 strb=0xc resp=0x0 order=AXI_LITE_W_BEFORE_AW b_wait=3
UVM_INFO ../tb/env/axi_lite_scoreboard.sv(100) @ 8615000: uvm_test_top.env.scb [AXI_LITE_SCB] Model write: addr=0x00000008 effective_addr=0x8 data=0xfffffc30 strb=0xc
UVM_INFO ../tb/agent/axi_lite_driver.sv(119) @ 8625000: uvm_test_top.env.agt.driver [AXI_LITE_DRV] WRITE addr=0x00000008 data=0xfffffc30 strb=0xc resp=0x0 aw_delay=3 w_delay=1 b_ready_delay=3
UVM_INFO ../tb/agent/axi_lite_monitor.sv(167) @ 8705000: uvm_test_top.env.agt.monitor [AXI_LITE_MON] READ addr=0x00000008 rdata=0xffff03b8 resp=0x0 r_wait=5
UVM_INFO ../tb/env/axi_lite_scoreboard.sv(165) @ 8705000: uvm_test_top.env.scb [AXI_LITE_SCB] Read match: addr=0x00000008 data=0xffff03b8
UVM_INFO ../tb/agent/axi_lite_driver.sv(192) @ 8715000: uvm_test_top.env.agt.driver [AXI_LITE_DRV] READ addr=0x00000008 rdata=0xffff03b8 resp=0x0 ar_delay=0 r_ready_delay=4
UVM_INFO ../tb/agent/axi_lite_monitor.sv(119) @ 8805000: uvm_test_top.env.agt.monitor [AXI_LITE_MON] WRITE addr=0x00000008 data=0xaaaaa974 strb=0xd resp=0x0 order=AXI_LITE_AW_BEFORE_W b_wait=4
UVM_INFO ../tb/env/axi_lite_scoreboard.sv(100) @ 8805000: uvm_test_top.env.scb [AXI_LITE_SCB] Model write: addr=0x00000008 effective_addr=0x8 data=0xaaaaa974 strb=0xd
UVM_INFO ../tb/agent/axi_lite_driver.sv(119) @ 8815000: uvm_test_top.env.agt.driver [AXI_LITE_DRV] WRITE addr=0x00000008 data=0xaaaaa974 strb=0xd resp=0x0 aw_delay=0 w_delay=2 b_ready_delay=4
UVM_INFO ../tb/agent/axi_lite_monitor.sv(167) @ 8855000: uvm_test_top.env.agt.monitor [AXI_LITE_MON] READ addr=0x00000008 rdata=0xaaaa0374 resp=0x0 r_wait=0
UVM_INFO ../tb/env/axi_lite_scoreboard.sv(165) @ 8855000: uvm_test_top.env.scb [AXI_LITE_SCB] Read match: addr=0x00000008 data=0xaaaa0374
UVM_INFO ../tb/agent/axi_lite_driver.sv(192) @ 8865000: uvm_test_top.env.agt.driver [AXI_LITE_DRV] READ addr=0x00000008 rdata=0xaaaa0374 resp=0x0 ar_delay=1 r_ready_delay=0
UVM_INFO ../tb/agent/axi_lite_monitor.sv(119) @ 8925000: uvm_test_top.env.agt.monitor [AXI_LITE_MON] WRITE addr=0x00000008 data=0x555556b8 strb=0xe resp=0x0 order=AXI_LITE_AW_BEFORE_W b_wait=0
UVM_INFO ../tb/env/axi_lite_scoreboard.sv(100) @ 8925000: uvm_test_top.env.scb [AXI_LITE_SCB] Model write: addr=0x00000008 effective_addr=0x8 data=0x555556b8 strb=0xe
UVM_INFO ../tb/agent/axi_lite_driver.sv(119) @ 8935000: uvm_test_top.env.agt.driver [AXI_LITE_DRV] WRITE addr=0x00000008 data=0x555556b8 strb=0xe resp=0x0 aw_delay=1 w_delay=3 b_ready_delay=0
UVM_INFO ../tb/agent/axi_lite_monitor.sv(167) @ 9005000: uvm_test_top.env.agt.monitor [AXI_LITE_MON] READ addr=0x00000008 rdata=0x55555674 resp=0x0 r_wait=2
UVM_INFO ../tb/env/axi_lite_scoreboard.sv(165) @ 9005000: uvm_test_top.env.scb [AXI_LITE_SCB] Read match: addr=0x00000008 data=0x55555674
UVM_INFO ../tb/agent/axi_lite_driver.sv(192) @ 9015000: uvm_test_top.env.agt.driver [AXI_LITE_DRV] READ addr=0x00000008 rdata=0x55555674 resp=0x0 ar_delay=2 r_ready_delay=1
UVM_INFO ../tb/agent/axi_lite_monitor.sv(119) @ 9075000: uvm_test_top.env.agt.monitor [AXI_LITE_MON] WRITE addr=0x00000008 data=0x12345584 strb=0xf resp=0x0 order=AXI_LITE_W_BEFORE_AW b_wait=1
UVM_INFO ../tb/env/axi_lite_scoreboard.sv(100) @ 9075000: uvm_test_top.env.scb [AXI_LITE_SCB] Model write: addr=0x00000008 effective_addr=0x8 data=0x12345584 strb=0xf
UVM_INFO ../tb/agent/axi_lite_driver.sv(119) @ 9085000: uvm_test_top.env.agt.driver [AXI_LITE_DRV] WRITE addr=0x00000008 data=0x12345584 strb=0xf resp=0x0 aw_delay=2 w_delay=0 b_ready_delay=1
UVM_INFO ../tb/agent/axi_lite_monitor.sv(167) @ 9175000: uvm_test_top.env.agt.monitor [AXI_LITE_MON] READ addr=0x00000008 rdata=0x12345584 resp=0x0 r_wait=3
UVM_INFO ../tb/env/axi_lite_scoreboard.sv(165) @ 9175000: uvm_test_top.env.scb [AXI_LITE_SCB] Read match: addr=0x00000008 data=0x12345584
UVM_INFO ../tb/agent/axi_lite_driver.sv(192) @ 9185000: uvm_test_top.env.agt.driver [AXI_LITE_DRV] READ addr=0x00000008 rdata=0x12345584 resp=0x0 ar_delay=3 r_ready_delay=2
UVM_INFO ../tb/agent/axi_lite_monitor.sv(119) @ 9265000: uvm_test_top.env.agt.monitor [AXI_LITE_MON] WRITE addr=0x0000000c data=0x55555140 strb=0x1 resp=0x0 order=AXI_LITE_AW_BEFORE_W b_wait=2
UVM_INFO ../tb/env/axi_lite_scoreboard.sv(100) @ 9265000: uvm_test_top.env.scb [AXI_LITE_SCB] Model write: addr=0x0000000c effective_addr=0xc data=0x55555140 strb=0x1
UVM_INFO ../tb/agent/axi_lite_driver.sv(119) @ 9275000: uvm_test_top.env.agt.driver [AXI_LITE_DRV] WRITE addr=0x0000000c data=0x55555140 strb=0x1 resp=0x0 aw_delay=0 w_delay=3 b_ready_delay=2
UVM_INFO ../tb/agent/axi_lite_monitor.sv(167) @ 9355000: uvm_test_top.env.agt.monitor [AXI_LITE_MON] READ addr=0x0000000c rdata=0x55555540 resp=0x0 r_wait=4
UVM_INFO ../tb/env/axi_lite_scoreboard.sv(165) @ 9355000: uvm_test_top.env.scb [AXI_LITE_SCB] Read match: addr=0x0000000c data=0x55555540
UVM_INFO ../tb/agent/axi_lite_driver.sv(192) @ 9365000: uvm_test_top.env.agt.driver [AXI_LITE_DRV] READ addr=0x0000000c rdata=0x55555540 resp=0x0 ar_delay=1 r_ready_delay=3
UVM_INFO ../tb/agent/axi_lite_monitor.sv(119) @ 9435000: uvm_test_top.env.agt.monitor [AXI_LITE_MON] WRITE addr=0x0000000c data=0x1234525e strb=0x2 resp=0x0 order=AXI_LITE_W_BEFORE_AW b_wait=3
UVM_INFO ../tb/env/axi_lite_scoreboard.sv(100) @ 9435000: uvm_test_top.env.scb [AXI_LITE_SCB] Model write: addr=0x0000000c effective_addr=0xc data=0x1234525e strb=0x2
UVM_INFO ../tb/agent/axi_lite_driver.sv(119) @ 9445000: uvm_test_top.env.agt.driver [AXI_LITE_DRV] WRITE addr=0x0000000c data=0x1234525e strb=0x2 resp=0x0 aw_delay=1 w_delay=0 b_ready_delay=3
UVM_INFO ../tb/agent/axi_lite_monitor.sv(167) @ 9545000: uvm_test_top.env.agt.monitor [AXI_LITE_MON] READ addr=0x0000000c rdata=0x55555240 resp=0x0 r_wait=5
UVM_INFO ../tb/env/axi_lite_scoreboard.sv(165) @ 9545000: uvm_test_top.env.scb [AXI_LITE_SCB] Read match: addr=0x0000000c data=0x55555240
UVM_INFO ../tb/agent/axi_lite_driver.sv(192) @ 9555000: uvm_test_top.env.agt.driver [AXI_LITE_DRV] READ addr=0x0000000c rdata=0x55555240 resp=0x0 ar_delay=2 r_ready_delay=4
UVM_INFO ../tb/agent/axi_lite_monitor.sv(119) @ 9645000: uvm_test_top.env.agt.monitor [AXI_LITE_MON] WRITE addr=0x0000000c data=0xcafebad8 strb=0x3 resp=0x0 order=AXI_LITE_W_BEFORE_AW b_wait=4
UVM_INFO ../tb/env/axi_lite_scoreboard.sv(100) @ 9645000: uvm_test_top.env.scb [AXI_LITE_SCB] Model write: addr=0x0000000c effective_addr=0xc data=0xcafebad8 strb=0x3
UVM_INFO ../tb/agent/axi_lite_driver.sv(119) @ 9655000: uvm_test_top.env.agt.driver [AXI_LITE_DRV] WRITE addr=0x0000000c data=0xcafebad8 strb=0x3 resp=0x0 aw_delay=2 w_delay=1 b_ready_delay=4
UVM_INFO ../tb/agent/axi_lite_monitor.sv(167) @ 9715000: uvm_test_top.env.agt.monitor [AXI_LITE_MON] READ addr=0x0000000c rdata=0x5555bad8 resp=0x0 r_wait=0
UVM_INFO ../tb/env/axi_lite_scoreboard.sv(165) @ 9715000: uvm_test_top.env.scb [AXI_LITE_SCB] Read match: addr=0x0000000c data=0x5555bad8
UVM_INFO ../tb/agent/axi_lite_driver.sv(192) @ 9725000: uvm_test_top.env.agt.driver [AXI_LITE_DRV] READ addr=0x0000000c rdata=0x5555bad8 resp=0x0 ar_delay=3 r_ready_delay=0
UVM_INFO ../tb/agent/axi_lite_monitor.sv(119) @ 9785000: uvm_test_top.env.agt.monitor [AXI_LITE_MON] WRITE addr=0x0000000c data=0x00000440 strb=0x4 resp=0x0 order=AXI_LITE_W_BEFORE_AW b_wait=0
UVM_INFO ../tb/env/axi_lite_scoreboard.sv(100) @ 9785000: uvm_test_top.env.scb [AXI_LITE_SCB] Model write: addr=0x0000000c effective_addr=0xc data=0x00000440 strb=0x4
UVM_INFO ../tb/agent/axi_lite_driver.sv(119) @ 9795000: uvm_test_top.env.agt.driver [AXI_LITE_DRV] WRITE addr=0x0000000c data=0x00000440 strb=0x4 resp=0x0 aw_delay=3 w_delay=2 b_ready_delay=0
UVM_INFO ../tb/agent/axi_lite_monitor.sv(167) @ 9845000: uvm_test_top.env.agt.monitor [AXI_LITE_MON] READ addr=0x0000000c rdata=0x5500bad8 resp=0x0 r_wait=2
UVM_INFO ../tb/env/axi_lite_scoreboard.sv(165) @ 9845000: uvm_test_top.env.scb [AXI_LITE_SCB] Read match: addr=0x0000000c data=0x5500bad8
UVM_INFO ../tb/agent/axi_lite_driver.sv(192) @ 9855000: uvm_test_top.env.agt.driver [AXI_LITE_DRV] READ addr=0x0000000c rdata=0x5500bad8 resp=0x0 ar_delay=0 r_ready_delay=1
UVM_INFO ../tb/agent/axi_lite_monitor.sv(119) @ 9925000: uvm_test_top.env.agt.monitor [AXI_LITE_MON] WRITE addr=0x0000000c data=0xfffffbae strb=0x5 resp=0x0 order=AXI_LITE_AW_BEFORE_W b_wait=1
UVM_INFO ../tb/env/axi_lite_scoreboard.sv(100) @ 9925000: uvm_test_top.env.scb [AXI_LITE_SCB] Model write: addr=0x0000000c effective_addr=0xc data=0xfffffbae strb=0x5
UVM_INFO ../tb/agent/axi_lite_driver.sv(119) @ 9935000: uvm_test_top.env.agt.driver [AXI_LITE_DRV] WRITE addr=0x0000000c data=0xfffffbae strb=0x5 resp=0x0 aw_delay=0 w_delay=3 b_ready_delay=1
UVM_INFO ../tb/agent/axi_lite_monitor.sv(167) @ 10005000: uvm_test_top.env.agt.monitor [AXI_LITE_MON] READ addr=0x0000000c rdata=0x55ffbaae resp=0x0 r_wait=3
UVM_INFO ../tb/env/axi_lite_scoreboard.sv(165) @ 10005000: uvm_test_top.env.scb [AXI_LITE_SCB] Read match: addr=0x0000000c data=0x55ffbaae
UVM_INFO ../tb/agent/axi_lite_driver.sv(192) @ 10015000: uvm_test_top.env.agt.driver [AXI_LITE_DRV] READ addr=0x0000000c rdata=0x55ffbaae resp=0x0 ar_delay=1 r_ready_delay=2
UVM_INFO ../tb/agent/axi_lite_monitor.sv(119) @ 10075000: uvm_test_top.env.agt.monitor [AXI_LITE_MON] WRITE addr=0x0000000c data=0xaaaaaec8 strb=0x6 resp=0x0 order=AXI_LITE_W_BEFORE_AW b_wait=2
UVM_INFO ../tb/env/axi_lite_scoreboard.sv(100) @ 10075000: uvm_test_top.env.scb [AXI_LITE_SCB] Model write: addr=0x0000000c effective_addr=0xc data=0xaaaaaec8 strb=0x6
UVM_INFO ../tb/agent/axi_lite_driver.sv(119) @ 10085000: uvm_test_top.env.agt.driver [AXI_LITE_DRV] WRITE addr=0x0000000c data=0xaaaaaec8 strb=0x6 resp=0x0 aw_delay=1 w_delay=0 b_ready_delay=2
UVM_INFO ../tb/agent/axi_lite_monitor.sv(167) @ 10175000: uvm_test_top.env.agt.monitor [AXI_LITE_MON] READ addr=0x0000000c rdata=0x55aaaeae resp=0x0 r_wait=4
UVM_INFO ../tb/env/axi_lite_scoreboard.sv(165) @ 10175000: uvm_test_top.env.scb [AXI_LITE_SCB] Read match: addr=0x0000000c data=0x55aaaeae
UVM_INFO ../tb/agent/axi_lite_driver.sv(192) @ 10185000: uvm_test_top.env.agt.driver [AXI_LITE_DRV] READ addr=0x0000000c rdata=0x55aaaeae resp=0x0 ar_delay=2 r_ready_delay=3
UVM_INFO ../tb/agent/axi_lite_monitor.sv(119) @ 10265000: uvm_test_top.env.agt.monitor [AXI_LITE_MON] WRITE addr=0x0000000c data=0x55555126 strb=0x7 resp=0x0 order=AXI_LITE_W_BEFORE_AW b_wait=3
UVM_INFO ../tb/env/axi_lite_scoreboard.sv(100) @ 10265000: uvm_test_top.env.scb [AXI_LITE_SCB] Model write: addr=0x0000000c effective_addr=0xc data=0x55555126 strb=0x7
UVM_INFO ../tb/agent/axi_lite_driver.sv(119) @ 10275000: uvm_test_top.env.agt.driver [AXI_LITE_DRV] WRITE addr=0x0000000c data=0x55555126 strb=0x7 resp=0x0 aw_delay=2 w_delay=1 b_ready_delay=3
UVM_INFO ../tb/agent/axi_lite_monitor.sv(167) @ 10385000: uvm_test_top.env.agt.monitor [AXI_LITE_MON] READ addr=0x0000000c rdata=0x55555126 resp=0x0 r_wait=5
UVM_INFO ../tb/env/axi_lite_scoreboard.sv(165) @ 10385000: uvm_test_top.env.scb [AXI_LITE_SCB] Read match: addr=0x0000000c data=0x55555126
UVM_INFO ../tb/agent/axi_lite_driver.sv(192) @ 10395000: uvm_test_top.env.agt.driver [AXI_LITE_DRV] READ addr=0x0000000c rdata=0x55555126 resp=0x0 ar_delay=3 r_ready_delay=4
UVM_INFO ../tb/agent/axi_lite_monitor.sv(119) @ 10495000: uvm_test_top.env.agt.monitor [AXI_LITE_MON] WRITE addr=0x0000000c data=0x123452f4 strb=0x8 resp=0x0 order=AXI_LITE_W_BEFORE_AW b_wait=4
UVM_INFO ../tb/env/axi_lite_scoreboard.sv(100) @ 10495000: uvm_test_top.env.scb [AXI_LITE_SCB] Model write: addr=0x0000000c effective_addr=0xc data=0x123452f4 strb=0x8
UVM_INFO ../tb/agent/axi_lite_driver.sv(119) @ 10505000: uvm_test_top.env.agt.driver [AXI_LITE_DRV] WRITE addr=0x0000000c data=0x123452f4 strb=0x8 resp=0x0 aw_delay=3 w_delay=2 b_ready_delay=4
UVM_INFO ../tb/agent/axi_lite_monitor.sv(167) @ 10535000: uvm_test_top.env.agt.monitor [AXI_LITE_MON] READ addr=0x0000000c rdata=0x12555126 resp=0x0 r_wait=0
UVM_INFO ../tb/env/axi_lite_scoreboard.sv(165) @ 10535000: uvm_test_top.env.scb [AXI_LITE_SCB] Read match: addr=0x0000000c data=0x12555126
UVM_INFO ../tb/agent/axi_lite_driver.sv(192) @ 10545000: uvm_test_top.env.agt.driver [AXI_LITE_DRV] READ addr=0x0000000c rdata=0x12555126 resp=0x0 ar_delay=0 r_ready_delay=0
UVM_INFO ../tb/agent/axi_lite_monitor.sv(119) @ 10605000: uvm_test_top.env.agt.monitor [AXI_LITE_MON] WRITE addr=0x0000000c data=0xcafeba72 strb=0x9 resp=0x0 order=AXI_LITE_AW_BEFORE_W b_wait=0
UVM_INFO ../tb/env/axi_lite_scoreboard.sv(100) @ 10605000: uvm_test_top.env.scb [AXI_LITE_SCB] Model write: addr=0x0000000c effective_addr=0xc data=0xcafeba72 strb=0x9
UVM_INFO ../tb/agent/axi_lite_driver.sv(119) @ 10615000: uvm_test_top.env.agt.driver [AXI_LITE_DRV] WRITE addr=0x0000000c data=0xcafeba72 strb=0x9 resp=0x0 aw_delay=0 w_delay=3 b_ready_delay=0
UVM_INFO ../tb/agent/axi_lite_monitor.sv(167) @ 10675000: uvm_test_top.env.agt.monitor [AXI_LITE_MON] READ addr=0x0000000c rdata=0xca555172 resp=0x0 r_wait=2
UVM_INFO ../tb/env/axi_lite_scoreboard.sv(165) @ 10675000: uvm_test_top.env.scb [AXI_LITE_SCB] Read match: addr=0x0000000c data=0xca555172
UVM_INFO ../tb/agent/axi_lite_driver.sv(192) @ 10685000: uvm_test_top.env.agt.driver [AXI_LITE_DRV] READ addr=0x0000000c rdata=0xca555172 resp=0x0 ar_delay=1 r_ready_delay=1
UVM_INFO ../tb/agent/axi_lite_monitor.sv(119) @ 10735000: uvm_test_top.env.agt.monitor [AXI_LITE_MON] WRITE addr=0x0000000c data=0x000004ae strb=0xa resp=0x0 order=AXI_LITE_W_BEFORE_AW b_wait=1
UVM_INFO ../tb/env/axi_lite_scoreboard.sv(100) @ 10735000: uvm_test_top.env.scb [AXI_LITE_SCB] Model write: addr=0x0000000c effective_addr=0xc data=0x000004ae strb=0xa
UVM_INFO ../tb/agent/axi_lite_driver.sv(119) @ 10745000: uvm_test_top.env.agt.driver [AXI_LITE_DRV] WRITE addr=0x0000000c data=0x000004ae strb=0xa resp=0x0 aw_delay=1 w_delay=0 b_ready_delay=1
UVM_INFO ../tb/agent/axi_lite_monitor.sv(167) @ 10825000: uvm_test_top.env.agt.monitor [AXI_LITE_MON] READ addr=0x0000000c rdata=0x00550472 resp=0x0 r_wait=3
UVM_INFO ../tb/env/axi_lite_scoreboard.sv(165) @ 10825000: uvm_test_top.env.scb [AXI_LITE_SCB] Read match: addr=0x0000000c data=0x00550472
UVM_INFO ../tb/agent/axi_lite_driver.sv(192) @ 10835000: uvm_test_top.env.agt.driver [AXI_LITE_DRV] READ addr=0x0000000c rdata=0x00550472 resp=0x0 ar_delay=2 r_ready_delay=2
UVM_INFO ../tb/agent/axi_lite_monitor.sv(119) @ 10905000: uvm_test_top.env.agt.monitor [AXI_LITE_MON] WRITE addr=0x0000000c data=0xfffffb40 strb=0xb resp=0x0 order=AXI_LITE_W_BEFORE_AW b_wait=2
UVM_INFO ../tb/env/axi_lite_scoreboard.sv(100) @ 10905000: uvm_test_top.env.scb [AXI_LITE_SCB] Model write: addr=0x0000000c effective_addr=0xc data=0xfffffb40 strb=0xb
UVM_INFO ../tb/agent/axi_lite_driver.sv(119) @ 10915000: uvm_test_top.env.agt.driver [AXI_LITE_DRV] WRITE addr=0x0000000c data=0xfffffb40 strb=0xb resp=0x0 aw_delay=2 w_delay=1 b_ready_delay=2
UVM_INFO ../tb/agent/axi_lite_monitor.sv(167) @ 11015000: uvm_test_top.env.agt.monitor [AXI_LITE_MON] READ addr=0x0000000c rdata=0xff55fb40 resp=0x0 r_wait=4
UVM_INFO ../tb/env/axi_lite_scoreboard.sv(165) @ 11015000: uvm_test_top.env.scb [AXI_LITE_SCB] Read match: addr=0x0000000c data=0xff55fb40
UVM_INFO ../tb/agent/axi_lite_driver.sv(192) @ 11025000: uvm_test_top.env.agt.driver [AXI_LITE_DRV] READ addr=0x0000000c rdata=0xff55fb40 resp=0x0 ar_delay=3 r_ready_delay=3
UVM_INFO ../tb/agent/axi_lite_monitor.sv(119) @ 11115000: uvm_test_top.env.agt.monitor [AXI_LITE_MON] WRITE addr=0x0000000c data=0xaaaaae62 strb=0xc resp=0x0 order=AXI_LITE_W_BEFORE_AW b_wait=3
UVM_INFO ../tb/env/axi_lite_scoreboard.sv(100) @ 11115000: uvm_test_top.env.scb [AXI_LITE_SCB] Model write: addr=0x0000000c effective_addr=0xc data=0xaaaaae62 strb=0xc
UVM_INFO ../tb/agent/axi_lite_driver.sv(119) @ 11125000: uvm_test_top.env.agt.driver [AXI_LITE_DRV] WRITE addr=0x0000000c data=0xaaaaae62 strb=0xc resp=0x0 aw_delay=3 w_delay=2 b_ready_delay=3
UVM_INFO ../tb/agent/axi_lite_monitor.sv(167) @ 11205000: uvm_test_top.env.agt.monitor [AXI_LITE_MON] READ addr=0x0000000c rdata=0xaaaafb40 resp=0x0 r_wait=5
UVM_INFO ../tb/env/axi_lite_scoreboard.sv(165) @ 11205000: uvm_test_top.env.scb [AXI_LITE_SCB] Read match: addr=0x0000000c data=0xaaaafb40
UVM_INFO ../tb/agent/axi_lite_driver.sv(192) @ 11215000: uvm_test_top.env.agt.driver [AXI_LITE_DRV] READ addr=0x0000000c rdata=0xaaaafb40 resp=0x0 ar_delay=0 r_ready_delay=4
UVM_INFO ../tb/agent/axi_lite_monitor.sv(119) @ 11315000: uvm_test_top.env.agt.monitor [AXI_LITE_MON] WRITE addr=0x0000000c data=0x5555518c strb=0xd resp=0x0 order=AXI_LITE_AW_BEFORE_W b_wait=4
UVM_INFO ../tb/env/axi_lite_scoreboard.sv(100) @ 11315000: uvm_test_top.env.scb [AXI_LITE_SCB] Model write: addr=0x0000000c effective_addr=0xc data=0x5555518c strb=0xd
UVM_INFO ../tb/agent/axi_lite_driver.sv(119) @ 11325000: uvm_test_top.env.agt.driver [AXI_LITE_DRV] WRITE addr=0x0000000c data=0x5555518c strb=0xd resp=0x0 aw_delay=0 w_delay=3 b_ready_delay=4
UVM_INFO ../tb/agent/axi_lite_monitor.sv(167) @ 11365000: uvm_test_top.env.agt.monitor [AXI_LITE_MON] READ addr=0x0000000c rdata=0x5555fb8c resp=0x0 r_wait=0
UVM_INFO ../tb/env/axi_lite_scoreboard.sv(165) @ 11365000: uvm_test_top.env.scb [AXI_LITE_SCB] Read match: addr=0x0000000c data=0x5555fb8c
UVM_INFO ../tb/agent/axi_lite_driver.sv(192) @ 11375000: uvm_test_top.env.agt.driver [AXI_LITE_DRV] READ addr=0x0000000c rdata=0x5555fb8c resp=0x0 ar_delay=1 r_ready_delay=0
UVM_INFO ../tb/agent/axi_lite_monitor.sv(119) @ 11415000: uvm_test_top.env.agt.monitor [AXI_LITE_MON] WRITE addr=0x0000000c data=0x12345292 strb=0xe resp=0x0 order=AXI_LITE_W_BEFORE_AW b_wait=0
UVM_INFO ../tb/env/axi_lite_scoreboard.sv(100) @ 11415000: uvm_test_top.env.scb [AXI_LITE_SCB] Model write: addr=0x0000000c effective_addr=0xc data=0x12345292 strb=0xe
UVM_INFO ../tb/agent/axi_lite_driver.sv(119) @ 11425000: uvm_test_top.env.agt.driver [AXI_LITE_DRV] WRITE addr=0x0000000c data=0x12345292 strb=0xe resp=0x0 aw_delay=1 w_delay=0 b_ready_delay=0
UVM_INFO ../tb/agent/axi_lite_monitor.sv(167) @ 11495000: uvm_test_top.env.agt.monitor [AXI_LITE_MON] READ addr=0x0000000c rdata=0x1234528c resp=0x0 r_wait=2
UVM_INFO ../tb/env/axi_lite_scoreboard.sv(165) @ 11495000: uvm_test_top.env.scb [AXI_LITE_SCB] Read match: addr=0x0000000c data=0x1234528c
UVM_INFO ../tb/agent/axi_lite_driver.sv(192) @ 11505000: uvm_test_top.env.agt.driver [AXI_LITE_DRV] READ addr=0x0000000c rdata=0x1234528c resp=0x0 ar_delay=2 r_ready_delay=1
UVM_INFO ../tb/agent/axi_lite_monitor.sv(119) @ 11565000: uvm_test_top.env.agt.monitor [AXI_LITE_MON] WRITE addr=0x0000000c data=0xcafeba14 strb=0xf resp=0x0 order=AXI_LITE_W_BEFORE_AW b_wait=1
UVM_INFO ../tb/env/axi_lite_scoreboard.sv(100) @ 11565000: uvm_test_top.env.scb [AXI_LITE_SCB] Model write: addr=0x0000000c effective_addr=0xc data=0xcafeba14 strb=0xf
UVM_INFO ../tb/agent/axi_lite_driver.sv(119) @ 11575000: uvm_test_top.env.agt.driver [AXI_LITE_DRV] WRITE addr=0x0000000c data=0xcafeba14 strb=0xf resp=0x0 aw_delay=2 w_delay=1 b_ready_delay=1
UVM_INFO ../tb/agent/axi_lite_monitor.sv(167) @ 11665000: uvm_test_top.env.agt.monitor [AXI_LITE_MON] READ addr=0x0000000c rdata=0xcafeba14 resp=0x0 r_wait=3
UVM_INFO ../tb/env/axi_lite_scoreboard.sv(165) @ 11665000: uvm_test_top.env.scb [AXI_LITE_SCB] Read match: addr=0x0000000c data=0xcafeba14
UVM_INFO ../tb/agent/axi_lite_driver.sv(192) @ 11675000: uvm_test_top.env.agt.driver [AXI_LITE_DRV] READ addr=0x0000000c rdata=0xcafeba14 resp=0x0 ar_delay=3 r_ready_delay=2
UVM_INFO ../tb/agent/axi_lite_monitor.sv(119) @ 11725000: uvm_test_top.env.agt.monitor [AXI_LITE_MON] WRITE addr=0x00000010 data=0x1234536c strb=0x1 resp=0x0 order=AXI_LITE_AW_W_SAME b_wait=2
UVM_INFO ../tb/env/axi_lite_scoreboard.sv(100) @ 11725000: uvm_test_top.env.scb [AXI_LITE_SCB] Model write: addr=0x00000010 effective_addr=0x10 data=0x1234536c strb=0x1
UVM_INFO ../tb/agent/axi_lite_driver.sv(119) @ 11735000: uvm_test_top.env.agt.driver [AXI_LITE_DRV] WRITE addr=0x00000010 data=0x1234536c strb=0x1 resp=0x0 aw_delay=0 w_delay=0 b_ready_delay=2
UVM_INFO ../tb/agent/axi_lite_monitor.sv(167) @ 11815000: uvm_test_top.env.agt.monitor [AXI_LITE_MON] READ addr=0x00000010 rdata=0x1234566c resp=0x0 r_wait=4
UVM_INFO ../tb/env/axi_lite_scoreboard.sv(165) @ 11815000: uvm_test_top.env.scb [AXI_LITE_SCB] Read match: addr=0x00000010 data=0x1234566c
UVM_INFO ../tb/agent/axi_lite_driver.sv(192) @ 11825000: uvm_test_top.env.agt.driver [AXI_LITE_DRV] READ addr=0x00000010 rdata=0x1234566c resp=0x0 ar_delay=1 r_ready_delay=3
UVM_INFO ../tb/agent/axi_lite_monitor.sv(119) @ 11895000: uvm_test_top.env.agt.monitor [AXI_LITE_MON] WRITE addr=0x00000010 data=0xcafebbc8 strb=0x2 resp=0x0 order=AXI_LITE_AW_W_SAME b_wait=3
UVM_INFO ../tb/env/axi_lite_scoreboard.sv(100) @ 11895000: uvm_test_top.env.scb [AXI_LITE_SCB] Model write: addr=0x00000010 effective_addr=0x10 data=0xcafebbc8 strb=0x2
UVM_INFO ../tb/agent/axi_lite_driver.sv(119) @ 11905000: uvm_test_top.env.agt.driver [AXI_LITE_DRV] WRITE addr=0x00000010 data=0xcafebbc8 strb=0x2 resp=0x0 aw_delay=1 w_delay=1 b_ready_delay=3
UVM_INFO ../tb/agent/axi_lite_monitor.sv(167) @ 12005000: uvm_test_top.env.agt.monitor [AXI_LITE_MON] READ addr=0x00000010 rdata=0x1234bb6c resp=0x0 r_wait=5
UVM_INFO ../tb/env/axi_lite_scoreboard.sv(165) @ 12005000: uvm_test_top.env.scb [AXI_LITE_SCB] Read match: addr=0x00000010 data=0x1234bb6c
UVM_INFO ../tb/agent/axi_lite_driver.sv(192) @ 12015000: uvm_test_top.env.agt.driver [AXI_LITE_DRV] READ addr=0x00000010 rdata=0x1234bb6c resp=0x0 ar_delay=2 r_ready_delay=4
UVM_INFO ../tb/agent/axi_lite_monitor.sv(119) @ 12105000: uvm_test_top.env.agt.monitor [AXI_LITE_MON] WRITE addr=0x00000010 data=0x00000536 strb=0x3 resp=0x0 order=AXI_LITE_AW_W_SAME b_wait=4
UVM_INFO ../tb/env/axi_lite_scoreboard.sv(100) @ 12105000: uvm_test_top.env.scb [AXI_LITE_SCB] Model write: addr=0x00000010 effective_addr=0x10 data=0x00000536 strb=0x3
UVM_INFO ../tb/agent/axi_lite_driver.sv(119) @ 12115000: uvm_test_top.env.agt.driver [AXI_LITE_DRV] WRITE addr=0x00000010 data=0x00000536 strb=0x3 resp=0x0 aw_delay=2 w_delay=2 b_ready_delay=4
UVM_INFO ../tb/agent/axi_lite_monitor.sv(167) @ 12175000: uvm_test_top.env.agt.monitor [AXI_LITE_MON] READ addr=0x00000010 rdata=0x12340536 resp=0x0 r_wait=0
UVM_INFO ../tb/env/axi_lite_scoreboard.sv(165) @ 12175000: uvm_test_top.env.scb [AXI_LITE_SCB] Read match: addr=0x00000010 data=0x12340536
UVM_INFO ../tb/agent/axi_lite_driver.sv(192) @ 12185000: uvm_test_top.env.agt.driver [AXI_LITE_DRV] READ addr=0x00000010 rdata=0x12340536 resp=0x0 ar_delay=3 r_ready_delay=0
UVM_INFO ../tb/agent/axi_lite_monitor.sv(119) @ 12245000: uvm_test_top.env.agt.monitor [AXI_LITE_MON] WRITE addr=0x00000010 data=0xfffffabe strb=0x4 resp=0x0 order=AXI_LITE_AW_W_SAME b_wait=0
UVM_INFO ../tb/env/axi_lite_scoreboard.sv(100) @ 12245000: uvm_test_top.env.scb [AXI_LITE_SCB] Model write: addr=0x00000010 effective_addr=0x10 data=0xfffffabe strb=0x4
UVM_INFO ../tb/agent/axi_lite_driver.sv(119) @ 12255000: uvm_test_top.env.agt.driver [AXI_LITE_DRV] WRITE addr=0x00000010 data=0xfffffabe strb=0x4 resp=0x0 aw_delay=3 w_delay=3 b_ready_delay=0
UVM_INFO ../tb/agent/axi_lite_monitor.sv(167) @ 12305000: uvm_test_top.env.agt.monitor [AXI_LITE_MON] READ addr=0x00000010 rdata=0x12ff0536 resp=0x0 r_wait=2
UVM_INFO ../tb/env/axi_lite_scoreboard.sv(165) @ 12305000: uvm_test_top.env.scb [AXI_LITE_SCB] Read match: addr=0x00000010 data=0x12ff0536
UVM_INFO ../tb/agent/axi_lite_driver.sv(192) @ 12315000: uvm_test_top.env.agt.driver [AXI_LITE_DRV] READ addr=0x00000010 rdata=0x12ff0536 resp=0x0 ar_delay=0 r_ready_delay=1
UVM_INFO ../tb/agent/axi_lite_monitor.sv(119) @ 12355000: uvm_test_top.env.agt.monitor [AXI_LITE_MON] WRITE addr=0x00000010 data=0xaaaaaffa strb=0x5 resp=0x0 order=AXI_LITE_AW_W_SAME b_wait=1
UVM_INFO ../tb/env/axi_lite_scoreboard.sv(100) @ 12355000: uvm_test_top.env.scb [AXI_LITE_SCB] Model write: addr=0x00000010 effective_addr=0x10 data=0xaaaaaffa strb=0x5
UVM_INFO ../tb/agent/axi_lite_driver.sv(119) @ 12365000: uvm_test_top.env.agt.driver [AXI_LITE_DRV] WRITE addr=0x00000010 data=0xaaaaaffa strb=0x5 resp=0x0 aw_delay=0 w_delay=0 b_ready_delay=1
UVM_INFO ../tb/agent/axi_lite_monitor.sv(167) @ 12435000: uvm_test_top.env.agt.monitor [AXI_LITE_MON] READ addr=0x00000010 rdata=0x12aa05fa resp=0x0 r_wait=3
UVM_INFO ../tb/env/axi_lite_scoreboard.sv(165) @ 12435000: uvm_test_top.env.scb [AXI_LITE_SCB] Read match: addr=0x00000010 data=0x12aa05fa
UVM_INFO ../tb/agent/axi_lite_driver.sv(192) @ 12445000: uvm_test_top.env.agt.driver [AXI_LITE_DRV] READ addr=0x00000010 rdata=0x12aa05fa resp=0x0 ar_delay=1 r_ready_delay=2
UVM_INFO ../tb/agent/axi_lite_monitor.sv(119) @ 12505000: uvm_test_top.env.agt.monitor [AXI_LITE_MON] WRITE addr=0x00000010 data=0x55555036 strb=0x6 resp=0x0 order=AXI_LITE_AW_W_SAME b_wait=2
UVM_INFO ../tb/env/axi_lite_scoreboard.sv(100) @ 12505000: uvm_test_top.env.scb [AXI_LITE_SCB] Model write: addr=0x00000010 effective_addr=0x10 data=0x55555036 strb=0x6
UVM_INFO ../tb/agent/axi_lite_driver.sv(119) @ 12515000: uvm_test_top.env.agt.driver [AXI_LITE_DRV] WRITE addr=0x00000010 data=0x55555036 strb=0x6 resp=0x0 aw_delay=1 w_delay=1 b_ready_delay=2
UVM_INFO ../tb/agent/axi_lite_monitor.sv(167) @ 12605000: uvm_test_top.env.agt.monitor [AXI_LITE_MON] READ addr=0x00000010 rdata=0x125550fa resp=0x0 r_wait=4
UVM_INFO ../tb/env/axi_lite_scoreboard.sv(165) @ 12605000: uvm_test_top.env.scb [AXI_LITE_SCB] Read match: addr=0x00000010 data=0x125550fa
UVM_INFO ../tb/agent/axi_lite_driver.sv(192) @ 12615000: uvm_test_top.env.agt.driver [AXI_LITE_DRV] READ addr=0x00000010 rdata=0x125550fa resp=0x0 ar_delay=2 r_ready_delay=3
UVM_INFO ../tb/agent/axi_lite_monitor.sv(119) @ 12695000: uvm_test_top.env.agt.monitor [AXI_LITE_MON] WRITE addr=0x00000010 data=0x1234530a strb=0x7 resp=0x0 order=AXI_LITE_AW_W_SAME b_wait=3
UVM_INFO ../tb/env/axi_lite_scoreboard.sv(100) @ 12695000: uvm_test_top.env.scb [AXI_LITE_SCB] Model write: addr=0x00000010 effective_addr=0x10 data=0x1234530a strb=0x7
UVM_INFO ../tb/agent/axi_lite_driver.sv(119) @ 12705000: uvm_test_top.env.agt.driver [AXI_LITE_DRV] WRITE addr=0x00000010 data=0x1234530a strb=0x7 resp=0x0 aw_delay=2 w_delay=2 b_ready_delay=3
UVM_INFO ../tb/agent/axi_lite_monitor.sv(167) @ 12815000: uvm_test_top.env.agt.monitor [AXI_LITE_MON] READ addr=0x00000010 rdata=0x1234530a resp=0x0 r_wait=5
UVM_INFO ../tb/env/axi_lite_scoreboard.sv(165) @ 12815000: uvm_test_top.env.scb [AXI_LITE_SCB] Read match: addr=0x00000010 data=0x1234530a
UVM_INFO ../tb/agent/axi_lite_driver.sv(192) @ 12825000: uvm_test_top.env.agt.driver [AXI_LITE_DRV] READ addr=0x00000010 rdata=0x1234530a resp=0x0 ar_delay=3 r_ready_delay=4
UVM_INFO ../tb/agent/axi_lite_monitor.sv(119) @ 12925000: uvm_test_top.env.agt.monitor [AXI_LITE_MON] WRITE addr=0x00000010 data=0xcafebb62 strb=0x8 resp=0x0 order=AXI_LITE_AW_W_SAME b_wait=4
UVM_INFO ../tb/env/axi_lite_scoreboard.sv(100) @ 12925000: uvm_test_top.env.scb [AXI_LITE_SCB] Model write: addr=0x00000010 effective_addr=0x10 data=0xcafebb62 strb=0x8
UVM_INFO ../tb/agent/axi_lite_driver.sv(119) @ 12935000: uvm_test_top.env.agt.driver [AXI_LITE_DRV] WRITE addr=0x00000010 data=0xcafebb62 strb=0x8 resp=0x0 aw_delay=3 w_delay=3 b_ready_delay=4
UVM_INFO ../tb/agent/axi_lite_monitor.sv(167) @ 12965000: uvm_test_top.env.agt.monitor [AXI_LITE_MON] READ addr=0x00000010 rdata=0xca34530a resp=0x0 r_wait=0
UVM_INFO ../tb/env/axi_lite_scoreboard.sv(165) @ 12965000: uvm_test_top.env.scb [AXI_LITE_SCB] Read match: addr=0x00000010 data=0xca34530a
UVM_INFO ../tb/agent/axi_lite_driver.sv(192) @ 12975000: uvm_test_top.env.agt.driver [AXI_LITE_DRV] READ addr=0x00000010 rdata=0xca34530a resp=0x0 ar_delay=0 r_ready_delay=0
UVM_INFO ../tb/agent/axi_lite_monitor.sv(119) @ 13005000: uvm_test_top.env.agt.monitor [AXI_LITE_MON] WRITE addr=0x00000010 data=0x0000059c strb=0x9 resp=0x0 order=AXI_LITE_AW_W_SAME b_wait=0
UVM_INFO ../tb/env/axi_lite_scoreboard.sv(100) @ 13005000: uvm_test_top.env.scb [AXI_LITE_SCB] Model write: addr=0x00000010 effective_addr=0x10 data=0x0000059c strb=0x9
UVM_INFO ../tb/agent/axi_lite_driver.sv(119) @ 13015000: uvm_test_top.env.agt.driver [AXI_LITE_DRV] WRITE addr=0x00000010 data=0x0000059c strb=0x9 resp=0x0 aw_delay=0 w_delay=0 b_ready_delay=0
UVM_INFO ../tb/agent/axi_lite_monitor.sv(167) @ 13075000: uvm_test_top.env.agt.monitor [AXI_LITE_MON] READ addr=0x00000010 rdata=0x0034539c resp=0x0 r_wait=2
UVM_INFO ../tb/env/axi_lite_scoreboard.sv(165) @ 13075000: uvm_test_top.env.scb [AXI_LITE_SCB] Read match: addr=0x00000010 data=0x0034539c
UVM_INFO ../tb/agent/axi_lite_driver.sv(192) @ 13085000: uvm_test_top.env.agt.driver [AXI_LITE_DRV] READ addr=0x00000010 rdata=0x0034539c resp=0x0 ar_delay=1 r_ready_delay=1
UVM_INFO ../tb/agent/axi_lite_monitor.sv(119) @ 13135000: uvm_test_top.env.agt.monitor [AXI_LITE_MON] WRITE addr=0x00000010 data=0xfffffa50 strb=0xa resp=0x0 order=AXI_LITE_AW_W_SAME b_wait=1
UVM_INFO ../tb/env/axi_lite_scoreboard.sv(100) @ 13135000: uvm_test_top.env.scb [AXI_LITE_SCB] Model write: addr=0x00000010 effective_addr=0x10 data=0xfffffa50 strb=0xa
UVM_INFO ../tb/agent/axi_lite_driver.sv(119) @ 13145000: uvm_test_top.env.agt.driver [AXI_LITE_DRV] WRITE addr=0x00000010 data=0xfffffa50 strb=0xa resp=0x0 aw_delay=1 w_delay=1 b_ready_delay=1
UVM_INFO ../tb/agent/axi_lite_monitor.sv(167) @ 13225000: uvm_test_top.env.agt.monitor [AXI_LITE_MON] READ addr=0x00000010 rdata=0xff34fa9c resp=0x0 r_wait=3
UVM_INFO ../tb/env/axi_lite_scoreboard.sv(165) @ 13225000: uvm_test_top.env.scb [AXI_LITE_SCB] Read match: addr=0x00000010 data=0xff34fa9c
UVM_INFO ../tb/agent/axi_lite_driver.sv(192) @ 13235000: uvm_test_top.env.agt.driver [AXI_LITE_DRV] READ addr=0x00000010 rdata=0xff34fa9c resp=0x0 ar_delay=2 r_ready_delay=2
UVM_INFO ../tb/agent/axi_lite_monitor.sv(119) @ 13305000: uvm_test_top.env.agt.monitor [AXI_LITE_MON] WRITE addr=0x00000010 data=0xaaaaaf14 strb=0xb resp=0x0 order=AXI_LITE_AW_W_SAME b_wait=2
UVM_INFO ../tb/env/axi_lite_scoreboard.sv(100) @ 13305000: uvm_test_top.env.scb [AXI_LITE_SCB] Model write: addr=0x00000010 effective_addr=0x10 data=0xaaaaaf14 strb=0xb
UVM_INFO ../tb/agent/axi_lite_driver.sv(119) @ 13315000: uvm_test_top.env.agt.driver [AXI_LITE_DRV] WRITE addr=0x00000010 data=0xaaaaaf14 strb=0xb resp=0x0 aw_delay=2 w_delay=2 b_ready_delay=2
UVM_INFO ../tb/agent/axi_lite_monitor.sv(167) @ 13415000: uvm_test_top.env.agt.monitor [AXI_LITE_MON] READ addr=0x00000010 rdata=0xaa34af14 resp=0x0 r_wait=4
UVM_INFO ../tb/env/axi_lite_scoreboard.sv(165) @ 13415000: uvm_test_top.env.scb [AXI_LITE_SCB] Read match: addr=0x00000010 data=0xaa34af14
UVM_INFO ../tb/agent/axi_lite_driver.sv(192) @ 13425000: uvm_test_top.env.agt.driver [AXI_LITE_DRV] READ addr=0x00000010 rdata=0xaa34af14 resp=0x0 ar_delay=3 r_ready_delay=3
UVM_INFO ../tb/agent/axi_lite_monitor.sv(119) @ 13515000: uvm_test_top.env.agt.monitor [AXI_LITE_MON] WRITE addr=0x00000010 data=0x5555509c strb=0xc resp=0x0 order=AXI_LITE_AW_W_SAME b_wait=3
UVM_INFO ../tb/env/axi_lite_scoreboard.sv(100) @ 13515000: uvm_test_top.env.scb [AXI_LITE_SCB] Model write: addr=0x00000010 effective_addr=0x10 data=0x5555509c strb=0xc
UVM_INFO ../tb/agent/axi_lite_driver.sv(119) @ 13525000: uvm_test_top.env.agt.driver [AXI_LITE_DRV] WRITE addr=0x00000010 data=0x5555509c strb=0xc resp=0x0 aw_delay=3 w_delay=3 b_ready_delay=3
UVM_INFO ../tb/agent/axi_lite_monitor.sv(167) @ 13605000: uvm_test_top.env.agt.monitor [AXI_LITE_MON] READ addr=0x00000010 rdata=0x5555af14 resp=0x0 r_wait=5
UVM_INFO ../tb/env/axi_lite_scoreboard.sv(165) @ 13605000: uvm_test_top.env.scb [AXI_LITE_SCB] Read match: addr=0x00000010 data=0x5555af14
UVM_INFO ../tb/agent/axi_lite_driver.sv(192) @ 13615000: uvm_test_top.env.agt.driver [AXI_LITE_DRV] READ addr=0x00000010 rdata=0x5555af14 resp=0x0 ar_delay=0 r_ready_delay=4
UVM_INFO ../tb/agent/axi_lite_monitor.sv(119) @ 13685000: uvm_test_top.env.agt.monitor [AXI_LITE_MON] WRITE addr=0x00000010 data=0x123453a0 strb=0xd resp=0x0 order=AXI_LITE_AW_W_SAME b_wait=4
UVM_INFO ../tb/env/axi_lite_scoreboard.sv(100) @ 13685000: uvm_test_top.env.scb [AXI_LITE_SCB] Model write: addr=0x00000010 effective_addr=0x10 data=0x123453a0 strb=0xd
UVM_INFO ../tb/agent/axi_lite_driver.sv(119) @ 13695000: uvm_test_top.env.agt.driver [AXI_LITE_DRV] WRITE addr=0x00000010 data=0x123453a0 strb=0xd resp=0x0 aw_delay=0 w_delay=0 b_ready_delay=4
UVM_INFO ../tb/agent/axi_lite_monitor.sv(167) @ 13735000: uvm_test_top.env.agt.monitor [AXI_LITE_MON] READ addr=0x00000010 rdata=0x1234afa0 resp=0x0 r_wait=0
UVM_INFO ../tb/env/axi_lite_scoreboard.sv(165) @ 13735000: uvm_test_top.env.scb [AXI_LITE_SCB] Read match: addr=0x00000010 data=0x1234afa0
UVM_INFO ../tb/agent/axi_lite_driver.sv(192) @ 13745000: uvm_test_top.env.agt.driver [AXI_LITE_DRV] READ addr=0x00000010 rdata=0x1234afa0 resp=0x0 ar_delay=1 r_ready_delay=0
UVM_INFO ../tb/agent/axi_lite_monitor.sv(119) @ 13785000: uvm_test_top.env.agt.monitor [AXI_LITE_MON] WRITE addr=0x00000010 data=0xcafebb04 strb=0xe resp=0x0 order=AXI_LITE_AW_W_SAME b_wait=0
UVM_INFO ../tb/env/axi_lite_scoreboard.sv(100) @ 13785000: uvm_test_top.env.scb [AXI_LITE_SCB] Model write: addr=0x00000010 effective_addr=0x10 data=0xcafebb04 strb=0xe
UVM_INFO ../tb/agent/axi_lite_driver.sv(119) @ 13795000: uvm_test_top.env.agt.driver [AXI_LITE_DRV] WRITE addr=0x00000010 data=0xcafebb04 strb=0xe resp=0x0 aw_delay=1 w_delay=1 b_ready_delay=0
UVM_INFO ../tb/agent/axi_lite_monitor.sv(167) @ 13865000: uvm_test_top.env.agt.monitor [AXI_LITE_MON] READ addr=0x00000010 rdata=0xcafebba0 resp=0x0 r_wait=2
UVM_INFO ../tb/env/axi_lite_scoreboard.sv(165) @ 13865000: uvm_test_top.env.scb [AXI_LITE_SCB] Read match: addr=0x00000010 data=0xcafebba0
UVM_INFO ../tb/agent/axi_lite_driver.sv(192) @ 13875000: uvm_test_top.env.agt.driver [AXI_LITE_DRV] READ addr=0x00000010 rdata=0xcafebba0 resp=0x0 ar_delay=2 r_ready_delay=1
UVM_INFO ../tb/agent/axi_lite_monitor.sv(119) @ 13935000: uvm_test_top.env.agt.monitor [AXI_LITE_MON] WRITE addr=0x00000010 data=0x000005fa strb=0xf resp=0x0 order=AXI_LITE_AW_W_SAME b_wait=1
UVM_INFO ../tb/env/axi_lite_scoreboard.sv(100) @ 13935000: uvm_test_top.env.scb [AXI_LITE_SCB] Model write: addr=0x00000010 effective_addr=0x10 data=0x000005fa strb=0xf
UVM_INFO ../tb/agent/axi_lite_driver.sv(119) @ 13945000: uvm_test_top.env.agt.driver [AXI_LITE_DRV] WRITE addr=0x00000010 data=0x000005fa strb=0xf resp=0x0 aw_delay=2 w_delay=2 b_ready_delay=1
UVM_INFO ../tb/agent/axi_lite_monitor.sv(167) @ 14035000: uvm_test_top.env.agt.monitor [AXI_LITE_MON] READ addr=0x00000010 rdata=0x000005fa resp=0x0 r_wait=3
UVM_INFO ../tb/env/axi_lite_scoreboard.sv(165) @ 14035000: uvm_test_top.env.scb [AXI_LITE_SCB] Read match: addr=0x00000010 data=0x000005fa
UVM_INFO ../tb/agent/axi_lite_driver.sv(192) @ 14045000: uvm_test_top.env.agt.driver [AXI_LITE_DRV] READ addr=0x00000010 rdata=0x000005fa resp=0x0 ar_delay=3 r_ready_delay=2
UVM_INFO ../tb/agent/axi_lite_monitor.sv(119) @ 14105000: uvm_test_top.env.agt.monitor [AXI_LITE_MON] WRITE addr=0x00000014 data=0xcafeb8f8 strb=0x1 resp=0x0 order=AXI_LITE_AW_BEFORE_W b_wait=2
UVM_INFO ../tb/env/axi_lite_scoreboard.sv(100) @ 14105000: uvm_test_top.env.scb [AXI_LITE_SCB] Model write: addr=0x00000014 effective_addr=0x14 data=0xcafeb8f8 strb=0x1
UVM_INFO ../tb/agent/axi_lite_driver.sv(119) @ 14115000: uvm_test_top.env.agt.driver [AXI_LITE_DRV] WRITE addr=0x00000014 data=0xcafeb8f8 strb=0x1 resp=0x0 aw_delay=0 w_delay=1 b_ready_delay=2
UVM_INFO ../tb/agent/axi_lite_monitor.sv(167) @ 14195000: uvm_test_top.env.agt.monitor [AXI_LITE_MON] READ addr=0x00000014 rdata=0xcafebef8 resp=0x0 r_wait=4
UVM_INFO ../tb/env/axi_lite_scoreboard.sv(165) @ 14195000: uvm_test_top.env.scb [AXI_LITE_SCB] Read match: addr=0x00000014 data=0xcafebef8
UVM_INFO ../tb/agent/axi_lite_driver.sv(192) @ 14205000: uvm_test_top.env.agt.driver [AXI_LITE_DRV] READ addr=0x00000014 rdata=0xcafebef8 resp=0x0 ar_delay=1 r_ready_delay=3
UVM_INFO ../tb/agent/axi_lite_monitor.sv(119) @ 14285000: uvm_test_top.env.agt.monitor [AXI_LITE_MON] WRITE addr=0x00000014 data=0x00000624 strb=0x2 resp=0x0 order=AXI_LITE_AW_BEFORE_W b_wait=3
UVM_INFO ../tb/env/axi_lite_scoreboard.sv(100) @ 14285000: uvm_test_top.env.scb [AXI_LITE_SCB] Model write: addr=0x00000014 effective_addr=0x14 data=0x00000624 strb=0x2
UVM_INFO ../tb/agent/axi_lite_driver.sv(119) @ 14295000: uvm_test_top.env.agt.driver [AXI_LITE_DRV] WRITE addr=0x00000014 data=0x00000624 strb=0x2 resp=0x0 aw_delay=1 w_delay=2 b_ready_delay=3
UVM_INFO ../tb/agent/axi_lite_monitor.sv(167) @ 14395000: uvm_test_top.env.agt.monitor [AXI_LITE_MON] READ addr=0x00000014 rdata=0xcafe06f8 resp=0x0 r_wait=5
UVM_INFO ../tb/env/axi_lite_scoreboard.sv(165) @ 14395000: uvm_test_top.env.scb [AXI_LITE_SCB] Read match: addr=0x00000014 data=0xcafe06f8
UVM_INFO ../tb/agent/axi_lite_driver.sv(192) @ 14405000: uvm_test_top.env.agt.driver [AXI_LITE_DRV] READ addr=0x00000014 rdata=0xcafe06f8 resp=0x0 ar_delay=2 r_ready_delay=4
UVM_INFO ../tb/agent/axi_lite_monitor.sv(119) @ 14505000: uvm_test_top.env.agt.monitor [AXI_LITE_MON] WRITE addr=0x00000014 data=0xfffff9ca strb=0x3 resp=0x0 order=AXI_LITE_AW_BEFORE_W b_wait=4
UVM_INFO ../tb/env/axi_lite_scoreboard.sv(100) @ 14505000: uvm_test_top.env.scb [AXI_LITE_SCB] Model write: addr=0x00000014 effective_addr=0x14 data=0xfffff9ca strb=0x3
UVM_INFO ../tb/agent/axi_lite_driver.sv(119) @ 14515000: uvm_test_top.env.agt.driver [AXI_LITE_DRV] WRITE addr=0x00000014 data=0xfffff9ca strb=0x3 resp=0x0 aw_delay=2 w_delay=3 b_ready_delay=4
UVM_INFO ../tb/agent/axi_lite_monitor.sv(167) @ 14575000: uvm_test_top.env.agt.monitor [AXI_LITE_MON] READ addr=0x00000014 rdata=0xcafef9ca resp=0x0 r_wait=0
UVM_INFO ../tb/env/axi_lite_scoreboard.sv(165) @ 14575000: uvm_test_top.env.scb [AXI_LITE_SCB] Read match: addr=0x00000014 data=0xcafef9ca
UVM_INFO ../tb/agent/axi_lite_driver.sv(192) @ 14585000: uvm_test_top.env.agt.driver [AXI_LITE_DRV] READ addr=0x00000014 rdata=0xcafef9ca resp=0x0 ar_delay=3 r_ready_delay=0
UVM_INFO ../tb/agent/axi_lite_monitor.sv(119) @ 14645000: uvm_test_top.env.agt.monitor [AXI_LITE_MON] WRITE addr=0x00000014 data=0xaaaaace8 strb=0x4 resp=0x0 order=AXI_LITE_W_BEFORE_AW b_wait=0
UVM_INFO ../tb/env/axi_lite_scoreboard.sv(100) @ 14645000: uvm_test_top.env.scb [AXI_LITE_SCB] Model write: addr=0x00000014 effective_addr=0x14 data=0xaaaaace8 strb=0x4
UVM_INFO ../tb/agent/axi_lite_driver.sv(119) @ 14655000: uvm_test_top.env.agt.driver [AXI_LITE_DRV] WRITE addr=0x00000014 data=0xaaaaace8 strb=0x4 resp=0x0 aw_delay=3 w_delay=0 b_ready_delay=0
UVM_INFO ../tb/agent/axi_lite_monitor.sv(167) @ 14705000: uvm_test_top.env.agt.monitor [AXI_LITE_MON] READ addr=0x00000014 rdata=0xcaaaf9ca resp=0x0 r_wait=2
UVM_INFO ../tb/env/axi_lite_scoreboard.sv(165) @ 14705000: uvm_test_top.env.scb [AXI_LITE_SCB] Read match: addr=0x00000014 data=0xcaaaf9ca
UVM_INFO ../tb/agent/axi_lite_driver.sv(192) @ 14715000: uvm_test_top.env.agt.driver [AXI_LITE_DRV] READ addr=0x00000014 rdata=0xcaaaf9ca resp=0x0 ar_delay=0 r_ready_delay=1
UVM_INFO ../tb/agent/axi_lite_monitor.sv(119) @ 14765000: uvm_test_top.env.agt.monitor [AXI_LITE_MON] WRITE addr=0x00000014 data=0x55555306 strb=0x5 resp=0x0 order=AXI_LITE_AW_BEFORE_W b_wait=1
UVM_INFO ../tb/env/axi_lite_scoreboard.sv(100) @ 14765000: uvm_test_top.env.scb [AXI_LITE_SCB] Model write: addr=0x00000014 effective_addr=0x14 data=0x55555306 strb=0x5
UVM_INFO ../tb/agent/axi_lite_driver.sv(119) @ 14775000: uvm_test_top.env.agt.driver [AXI_LITE_DRV] WRITE addr=0x00000014 data=0x55555306 strb=0x5 resp=0x0 aw_delay=0 w_delay=1 b_ready_delay=1
UVM_INFO ../tb/agent/axi_lite_monitor.sv(167) @ 14845000: uvm_test_top.env.agt.monitor [AXI_LITE_MON] READ addr=0x00000014 rdata=0xca55f906 resp=0x0 r_wait=3
UVM_INFO ../tb/env/axi_lite_scoreboard.sv(165) @ 14845000: uvm_test_top.env.scb [AXI_LITE_SCB] Read match: addr=0x00000014 data=0xca55f906
UVM_INFO ../tb/agent/axi_lite_driver.sv(192) @ 14855000: uvm_test_top.env.agt.driver [AXI_LITE_DRV] READ addr=0x00000014 rdata=0xca55f906 resp=0x0 ar_delay=1 r_ready_delay=2
UVM_INFO ../tb/agent/axi_lite_monitor.sv(119) @ 14925000: uvm_test_top.env.agt.monitor [AXI_LITE_MON] WRITE addr=0x00000014 data=0x12345018 strb=0x6 resp=0x0 order=AXI_LITE_AW_BEFORE_W b_wait=2
UVM_INFO ../tb/env/axi_lite_scoreboard.sv(100) @ 14925000: uvm_test_top.env.scb [AXI_LITE_SCB] Model write: addr=0x00000014 effective_addr=0x14 data=0x12345018 strb=0x6
UVM_INFO ../tb/agent/axi_lite_driver.sv(119) @ 14935000: uvm_test_top.env.agt.driver [AXI_LITE_DRV] WRITE addr=0x00000014 data=0x12345018 strb=0x6 resp=0x0 aw_delay=1 w_delay=2 b_ready_delay=2
UVM_INFO ../tb/agent/axi_lite_monitor.sv(167) @ 15025000: uvm_test_top.env.agt.monitor [AXI_LITE_MON] READ addr=0x00000014 rdata=0xca345006 resp=0x0 r_wait=4
UVM_INFO ../tb/env/axi_lite_scoreboard.sv(165) @ 15025000: uvm_test_top.env.scb [AXI_LITE_SCB] Read match: addr=0x00000014 data=0xca345006
UVM_INFO ../tb/agent/axi_lite_driver.sv(192) @ 15035000: uvm_test_top.env.agt.driver [AXI_LITE_DRV] READ addr=0x00000014 rdata=0xca345006 resp=0x0 ar_delay=2 r_ready_delay=3
UVM_INFO ../tb/agent/axi_lite_monitor.sv(119) @ 15125000: uvm_test_top.env.agt.monitor [AXI_LITE_MON] WRITE addr=0x00000014 data=0xcafeb89e strb=0x7 resp=0x0 order=AXI_LITE_AW_BEFORE_W b_wait=3
UVM_INFO ../tb/env/axi_lite_scoreboard.sv(100) @ 15125000: uvm_test_top.env.scb [AXI_LITE_SCB] Model write: addr=0x00000014 effective_addr=0x14 data=0xcafeb89e strb=0x7
UVM_INFO ../tb/agent/axi_lite_driver.sv(119) @ 15135000: uvm_test_top.env.agt.driver [AXI_LITE_DRV] WRITE addr=0x00000014 data=0xcafeb89e strb=0x7 resp=0x0 aw_delay=2 w_delay=3 b_ready_delay=3
UVM_INFO ../tb/agent/axi_lite_monitor.sv(167) @ 15245000: uvm_test_top.env.agt.monitor [AXI_LITE_MON] READ addr=0x00000014 rdata=0xcafeb89e resp=0x0 r_wait=5
UVM_INFO ../tb/env/axi_lite_scoreboard.sv(165) @ 15245000: uvm_test_top.env.scb [AXI_LITE_SCB] Read match: addr=0x00000014 data=0xcafeb89e
UVM_INFO ../tb/agent/axi_lite_driver.sv(192) @ 15255000: uvm_test_top.env.agt.driver [AXI_LITE_DRV] READ addr=0x00000014 rdata=0xcafeb89e resp=0x0 ar_delay=3 r_ready_delay=4
UVM_INFO ../tb/agent/axi_lite_monitor.sv(119) @ 15355000: uvm_test_top.env.agt.monitor [AXI_LITE_MON] WRITE addr=0x00000014 data=0x0000068e strb=0x8 resp=0x0 order=AXI_LITE_W_BEFORE_AW b_wait=4
UVM_INFO ../tb/env/axi_lite_scoreboard.sv(100) @ 15355000: uvm_test_top.env.scb [AXI_LITE_SCB] Model write: addr=0x00000014 effective_addr=0x14 data=0x0000068e strb=0x8
UVM_INFO ../tb/agent/axi_lite_driver.sv(119) @ 15365000: uvm_test_top.env.agt.driver [AXI_LITE_DRV] WRITE addr=0x00000014 data=0x0000068e strb=0x8 resp=0x0 aw_delay=3 w_delay=0 b_ready_delay=4
UVM_INFO ../tb/agent/axi_lite_monitor.sv(167) @ 15395000: uvm_test_top.env.agt.monitor [AXI_LITE_MON] READ addr=0x00000014 rdata=0x00feb89e resp=0x0 r_wait=0
UVM_INFO ../tb/env/axi_lite_scoreboard.sv(165) @ 15395000: uvm_test_top.env.scb [AXI_LITE_SCB] Read match: addr=0x00000014 data=0x00feb89e
UVM_INFO ../tb/agent/axi_lite_driver.sv(192) @ 15405000: uvm_test_top.env.agt.driver [AXI_LITE_DRV] READ addr=0x00000014 rdata=0x00feb89e resp=0x0 ar_delay=0 r_ready_delay=0
UVM_INFO ../tb/agent/axi_lite_monitor.sv(119) @ 15445000: uvm_test_top.env.agt.monitor [AXI_LITE_MON] WRITE addr=0x00000014 data=0xfffff960 strb=0x9 resp=0x0 order=AXI_LITE_AW_BEFORE_W b_wait=0
UVM_INFO ../tb/env/axi_lite_scoreboard.sv(100) @ 15445000: uvm_test_top.env.scb [AXI_LITE_SCB] Model write: addr=0x00000014 effective_addr=0x14 data=0xfffff960 strb=0x9
UVM_INFO ../tb/agent/axi_lite_driver.sv(119) @ 15455000: uvm_test_top.env.agt.driver [AXI_LITE_DRV] WRITE addr=0x00000014 data=0xfffff960 strb=0x9 resp=0x0 aw_delay=0 w_delay=1 b_ready_delay=0
UVM_INFO ../tb/agent/axi_lite_monitor.sv(167) @ 15515000: uvm_test_top.env.agt.monitor [AXI_LITE_MON] READ addr=0x00000014 rdata=0xfffeb860 resp=0x0 r_wait=2
UVM_INFO ../tb/env/axi_lite_scoreboard.sv(165) @ 15515000: uvm_test_top.env.scb [AXI_LITE_SCB] Read match: addr=0x00000014 data=0xfffeb860
UVM_INFO ../tb/agent/axi_lite_driver.sv(192) @ 15525000: uvm_test_top.env.agt.driver [AXI_LITE_DRV] READ addr=0x00000014 rdata=0xfffeb860 resp=0x0 ar_delay=1 r_ready_delay=1
UVM_INFO ../tb/agent/axi_lite_monitor.sv(119) @ 15585000: uvm_test_top.env.agt.monitor [AXI_LITE_MON] WRITE addr=0x00000014 data=0xaaaaac06 strb=0xa resp=0x0 order=AXI_LITE_AW_BEFORE_W b_wait=1
UVM_INFO ../tb/env/axi_lite_scoreboard.sv(100) @ 15585000: uvm_test_top.env.scb [AXI_LITE_SCB] Model write: addr=0x00000014 effective_addr=0x14 data=0xaaaaac06 strb=0xa
UVM_INFO ../tb/agent/axi_lite_driver.sv(119) @ 15595000: uvm_test_top.env.agt.driver [AXI_LITE_DRV] WRITE addr=0x00000014 data=0xaaaaac06 strb=0xa resp=0x0 aw_delay=1 w_delay=2 b_ready_delay=1
UVM_INFO ../tb/agent/axi_lite_monitor.sv(167) @ 15675000: uvm_test_top.env.agt.monitor [AXI_LITE_MON] READ addr=0x00000014 rdata=0xaafeac60 resp=0x0 r_wait=3
UVM_INFO ../tb/env/axi_lite_scoreboard.sv(165) @ 15675000: uvm_test_top.env.scb [AXI_LITE_SCB] Read match: addr=0x00000014 data=0xaafeac60
UVM_INFO ../tb/agent/axi_lite_driver.sv(192) @ 15685000: uvm_test_top.env.agt.driver [AXI_LITE_DRV] READ addr=0x00000014 rdata=0xaafeac60 resp=0x0 ar_delay=2 r_ready_delay=2
